(1696758369.242495) can0 501#0101000001000000
(1696758369.247065) can0 230#0000000000120000
(1696758369.248079) can0 07D#0000000000000000
(1696758369.249035) can0 440#00030000023A0488
(1696758369.250050) can0 07A#0000000000000000
(1696758369.251041) can0 160#0000000008000000
(1696758369.252048) can0 304#0000000000000000
(1696758369.253031) can0 06C#7A07FF0800000000
(1696758369.253998) can0 335#410100C000000000
(1696758369.254981) can0 46B#03FFFFFFFFFFFF30
(1696758369.255969) can0 4F0#00000000001B0000
(1696758369.256938) can0 547#4701000047000000
(1696758369.262087) can0 0FD#D3609049E1000000
(1696758369.267004) can0 0DF#0000000000000000
(1696758369.272110) can0 2A0#212F00000003EC44
(1696758369.273090) can0 07E#003B80A00001C020
(1696758369.274048) can0 110#4000D02F00007F04
(1696758369.278083) can0 180#1000000000000104
(1696758369.282140) can0 06C#7A07FF0800000000
(1696758369.287064) can0 07D#0000000000000000
(1696758369.288022) can0 245#0001000000000040
(1696758369.289700) can0 07A#0000000000000000
(1696758369.292115) can0 490#0C00893DCC140000
(1696758369.293066) can0 0B0#E2000820E11E0C00
(1696758369.294063) can0 201#0000000000000000
(1696758369.295062) can0 0F7#0000000000000100
(1696758369.296077) can0 214#0000000000000000
(1696758369.297083) can0 2F0#0000000000000000
(1696758369.298077) can0 301#0020300000000000
(1696758369.299048) can0 310#8408000000900000
(1696758369.300038) can0 160#0000000008000000
(1696758369.300981) can0 455#600C40002003EC67
(1696758369.301962) can0 48A#0000000000400000
(1696758369.302913) can0 302#3031232F09FFFFFF
(1696758369.303894) can0 496#00017C2000000000
(1696758369.304883) can0 4A0#01010000A4006C00
(1696758369.305856) can0 4C0#000000000003EC67
(1696758369.307351) can0 0DF#0000000000000000
(1696758369.308302) can0 330#000303EC4403EC67
(1696758369.309283) can0 503#0301000000000000
(1696758369.310265) can0 511#1101000005000000
(1696758369.312160) can0 06C#7A07FF0800000000
(1696758369.313102) can0 0FD#D3609049E1000000
(1696758369.314038) can0 32A#1B2030C92003EC44
(1696758369.317558) can0 488#0000000000005800
(1696758369.318550) can0 0A3#0000002000180000
(1696758369.319522) can0 102#0000001C8003EC67
(1696758369.320514) can0 504#0401000000000000
(1696758369.321503) can0 505#0501000000000000
(1696758369.322484) can0 07E#003B80A00001C020
(1696758369.323429) can0 4B0#84010100008030F3
(1696758369.327006) can0 4BA#0000000000000000
(1696758369.328019) can0 07D#0000000000000000
(1696758369.329712) can0 07A#0000000000000000
(1696758369.332154) can0 110#4A0102FD00007F02
(1696758369.337043) can0 180#1006000000000104
(1696758369.342168) can0 06C#7A07FF0800000000
(1696758369.343112) can0 0B0#E2000820E11E0C00
(1696758369.344095) can0 501#0302000000000000
(1696758369.345061) can0 0F7#01FC01A880000380
(1696758369.346076) can0 214#0000000000000000
(1696758369.347084) can0 0DF#0000000000000000
(1696758369.348077) can0 230#0000000000120000
(1696758369.349032) can0 440#01070000023A0488
(1696758369.350023) can0 160#0000000008000000
(1696758369.351021) can0 4D0#0000200000000000
(1696758369.357554) can0 0A3#00000021000C0000
(1696758369.362117) can0 0FD#D3609049E1000000
(1696758369.367071) can0 07D#0000000000000000
(1696758369.368061) can0 080#0000000000016580
(1696758369.369040) can0 245#0001000000000040
(1696758369.370056) can0 07A#0000000000000000
(1696758369.371062) can0 304#0000000000000000
(1696758369.372238) can0 06C#7A07FFE800000000
(1696758369.373220) can0 07E#003B80A0001FC060
(1696758369.377593) can0 102#0000001C8003EC67
(1696758369.382309) can0 201#0000000000000000
(1696758369.387046) can0 0DF#0000000000000000
(1696758369.392243) can0 2A0#212F00000003EC44
(1696758369.393179) can0 0B0#E2000820E11E4800
(1696758369.394145) can0 110#400102FD00007F02
(1696758369.395104) can0 0F7#01FC01A880000300
(1696758369.396118) can0 214#0000000000000000
(1696758369.397117) can0 180#1002000000000104
(1696758369.401598) can0 0A3#0000000103842000
(1696758369.401911) can0 160#0000000008000000
(1696758369.402337) can0 06C#7A07FF6800000000
(1696758369.406912) can0 400#0202020104040002
(1696758369.407928) can0 07D#0000000000000000
(1696758369.408884) can0 405#02FFFF003203EC67
(1696758369.409900) can0 07A#0000000000000000
(1696758369.412035) can0 0FD#D3609049E1000000
(1696758369.413027) can0 301#0020300000000000
(1696758369.414481) can0 2F0#0000000040000000
(1696758369.416962) can0 310#8408000000900000
(1696758369.417972) can0 080#0000000000010504
(1696758369.422087) can0 07E#003B80A0001FC020
(1696758369.426928) can0 0DF#0000000000000000
(1696758369.427919) can0 4F0#00000000001B0000
(1696758369.432110) can0 06C#7A07FF6800000000
(1696758369.437370) can0 0A3#000000C111042040
(1696758369.438340) can0 102#0000001C8003EC67
(1696758369.442184) can0 0B0#E2000820E11E0800
(1696758369.444425) can0 0F7#01FC01A880000300
(1696758369.445438) can0 214#0000000000000000
(1696758369.447006) can0 230#0000000000120000
(1696758369.448023) can0 07D#0000000000000000
(1696758369.449004) can0 245#0001000000000040
(1696758369.450018) can0 07A#0000000000000000
(1696758369.451010) can0 160#0000000008000000
(1696758369.451970) can0 440#00070000023A0488
(1696758369.452945) can0 110#4A0102FD00007F03
(1696758369.454480) can0 503#0412000000000000
(1696758369.457048) can0 180#1002000000000104
(1696758369.462090) can0 06C#7A07FF6800000000
(1696758369.463029) can0 0FD#D3609049E1000000
(1696758369.466951) can0 0DF#0000000000000000
(1696758369.467942) can0 080#0000000000C10505
(1696758369.472115) can0 07E#003B80A0001FC020
(1696758369.473113) can0 201#0000000000000000
(1696758369.477322) can0 0A3#000000C111042040
(1696758369.482076) can0 302#3031232F09FFFFFF
(1696758369.487092) can0 07D#0000000000000000
(1696758369.489632) can0 07A#0000000000000000
(1696758369.490635) can0 304#0000000000000000
(1696758369.492129) can0 06C#7A07FF6800000000
(1696758369.493080) can0 0B0#E2000820E11E0800
(1696758369.494480) can0 0F7#01FC01A880000300
(1696758369.495494) can0 214#0000000000000000
(1696758369.497375) can0 102#0000001C8003EC67
(1696758369.499620) can0 160#0000000008000000
(1696758369.506979) can0 0DF#0000000000000000
(1696758369.512061) can0 2A0#212F00000003EC44
(1696758369.513000) can0 0FD#D3609049E1000000
(1696758369.513975) can0 110#400102FD00007F03
(1696758369.516953) can0 080#0000000000C10505
(1696758369.517913) can0 0A3#000000C111042040
(1696758369.518908) can0 180#1002000000000104
(1696758369.522165) can0 06C#7A07FF6800000000
(1696758369.523139) can0 07E#003B80A0001FC020
(1696758369.527123) can0 07D#0000000000000000
(1696758369.528107) can0 245#0001000000000040
(1696758369.529632) can0 07A#0000000000000000
(1696758369.532161) can0 301#0020300000000000
(1696758369.533112) can0 330#000303EC4403EC67
(1696758369.534494) can0 2F0#0000000040000000
(1696758369.537014) can0 310#8408000000900000
(1696758369.537952) can0 32A#1B2030C92003EC44
(1696758369.542226) can0 0B0#E2000820FD02CC00
(1696758369.544449) can0 0F7#01FC01A880000300
(1696758369.545464) can0 214#0000000000000000
(1696758369.547070) can0 0DF#0000000000000000
(1696758369.548059) can0 230#0000000000120000
(1696758369.549017) can0 440#00070000023A0488
(1696758369.550008) can0 160#0000000008000000
(1696758369.550976) can0 335#410100C000000000
(1696758369.552191) can0 06C#7A07FF6800000000
(1696758369.557216) can0 0A3#000000C111142640
(1696758369.558188) can0 102#0000001C8003EC67
(1696758369.562108) can0 0FD#D3609049E1000000
(1696758369.563106) can0 201#0000000000000000
(1696758369.564104) can0 504#0502000000000000
(1696758369.566826) can0 080#0000000000C10505
(1696758369.567843) can0 07D#0000000000000000
(1696758369.569647) can0 07A#0000000000000000
(1696758369.572159) can0 07E#003B80A0001FC020
(1696758369.573126) can0 110#4A0102FD00007F04
(1696758369.577122) can0 180#1002000000000104
(1696758369.582136) can0 06C#7A07FF6800000000
(1696758369.586968) can0 0DF#0000000000000000
(1696758369.592228) can0 0B0#E2000820FD020C00
(1696758369.593178) can0 455#600440002003EC67
(1696758369.594456) can0 0F7#01FC01A880000300
(1696758369.595471) can0 214#0000000000000000
(1696758369.597221) can0 0A3#000000C111040640
(1696758369.602550) can0 160#0000000008000000
(1696758369.607096) can0 46B#00FFFFFFFFFFFFB0
(1696758369.608113) can0 07D#0000000000000000
(1696758369.609093) can0 245#0001000000000040
(1696758369.610109) can0 07A#0000000000000000
(1696758369.611115) can0 304#0000000000000000
(1696758369.612106) can0 4F0#00000000001B0000
(1696758369.613096) can0 06C#7A07FF6800000000
(1696758369.614040) can0 0FD#D3609049E1000000
(1696758369.616843) can0 080#0000000000C10505
(1696758369.617822) can0 102#0000001C8003EC67
(1696758369.622385) can0 07E#003B80A00004C060
(1696758369.627097) can0 0DF#0000000000000000
(1696758369.632228) can0 2A0#212F00000003EC44
(1696758369.633192) can0 110#400102FD00007F04
(1696758369.637119) can0 180#1002000000000104
(1696758369.638079) can0 0A3#000000E111040640
(1696758369.642261) can0 06C#7A07FF8800000000
(1696758369.643228) can0 0B0#E2000820FD020C00
(1696758369.644587) can0 0F7#01FC01A880000300
(1696758369.645602) can0 214#0000000000000000
(1696758369.647153) can0 230#0000000000120000
(1696758369.648167) can0 07D#0000000000000000
(1696758369.649127) can0 440#00070000023A0488
(1696758369.650143) can0 07A#0000000000000000
(1696758369.651134) can0 160#0000000008000000
(1696758369.652333) can0 301#0020300000000000
(1696758369.653331) can0 201#0000000000000000
(1696758369.654642) can0 2F0#0000000040000000
(1696758369.657202) can0 310#8408000000900800
(1696758369.662306) can0 400#0303020102020101
(1696758369.663256) can0 0FD#D3609019E1000000
(1696758369.664207) can0 302#3031232F09FFFFFF
(1696758369.665206) can0 405#0000000000000000
(1696758369.666755) can0 080#0000000000C10505
(1696758369.667765) can0 0DF#0000000000000000
(1696758369.671671) can0 505#1102000000000000
(1696758369.672653) can0 06C#7A07FF0800000000
(1696758369.673629) can0 07E#003B80A00004C020
(1696758369.676698) can0 488#0000000000005800
(1696758369.677699) can0 0A3#000000C111040640
(1696758369.678625) can0 102#0000001C8003EC67
(1696758369.687140) can0 07D#0000000000000000
(1696758369.688125) can0 245#0001000000000040
(1696758369.689754) can0 07A#0000000000000000
(1696758369.692265) can0 110#400102FD00007F04
(1696758369.693233) can0 0B0#E2000820FD020C00
(1696758369.694608) can0 0F7#01FC01A880000300
(1696758369.695623) can0 214#0000000000000000
(1696758369.697223) can0 180#1002000000000104
(1696758369.703247) can0 160#0000000008000000
(1696758369.703558) can0 06C#7A07FF0800000000
(1696758369.707011) can0 0DF#0000000000000000
(1696758369.712237) can0 0FD#D3609019E1000000
(1696758369.716464) can0 080#0000000000C10505
(1696758369.717424) can0 0A3#000000C111040640
(1696758369.722166) can0 07E#003B80A00004C020
(1696758369.727053) can0 07D#0000000000000000
(1696758369.729654) can0 07A#0000000000000000
(1696758369.730658) can0 304#0000000000000000
(1696758369.732217) can0 06C#7A07FF0800000000
(1696758369.737043) can0 102#0000001C8003EC67
(1696758369.742102) can0 490#0C00893DCC180000
(1696758369.743065) can0 0B0#E2000820FD020C00
(1696758369.744063) can0 201#0000000000000000
(1696758369.745022) can0 0F7#01FC01A880000300
(1696758369.746037) can0 214#0000000000000000
(1696758369.747004) can0 48A#9580008070800080
(1696758369.748013) can0 0DF#0000000000000000
(1696758369.749000) can0 230#0000000000120000
(1696758369.749992) can0 160#0000000008000000
(1696758369.750951) can0 440#00070000023A0488
(1696758369.752206) can0 2A0#212F00000003EC44
(1696758369.753173) can0 110#400102FD00007F04
(1696758369.756976) can0 0A3#000000C111040640
(1696758369.757977) can0 180#1002000000000104
(1696758369.758925) can0 330#000303EC4403EC67
(1696758369.762165) can0 06C#7A07FF0800000000
(1696758369.763116) can0 0FD#D3609019E1000000
(1696758369.764051) can0 32A#1B2030C92003EC44
(1696758369.766630) can0 080#0000000000C10505
(1696758369.767646) can0 07D#0000000000000000
(1696758369.768626) can0 245#0001000000000040
(1696758369.769697) can0 07A#0000000000000000
(1696758369.772200) can0 07E#003B80A00004C020
(1696758369.773192) can0 301#0020300000000000
(1696758369.774551) can0 2F0#0000000040000000
(1696758369.777050) can0 310#8408000000900800
(1696758369.782298) can0 511#0112000000000000
(1696758369.784649) can0 547#0111000047000000
(1696758369.787035) can0 0DF#0000000000000000
(1696758369.788031) can0 4F0#00000000001B0000
(1696758369.792187) can0 06C#7A07FF0800000000
(1696758369.793154) can0 0B0#E2000820FD020C00
(1696758369.794513) can0 0F7#01FC01A880000300
(1696758369.795528) can0 214#0000000000000000
(1696758369.796878) can0 0A3#000000C111040640
(1696758369.797853) can0 102#0000001C8003EC67
(1696758369.803102) can0 160#0000000008000000
(1696758369.807190) can0 07D#0000000000000000
(1696758369.809768) can0 07A#0000000000000000
(1696758369.812255) can0 0FD#D3609019E1000000
(1696758369.813223) can0 110#400102FD00007F04
(1696758369.816192) can0 080#000003EC67C18505
(1696758369.817192) can0 180#1002000000000104
(1696758369.822303) can0 06C#7A07FF0800000000
(1696758369.823279) can0 07E#003B80A00004C020
(1696758369.827111) can0 0DF#0000000000000000
(1696758369.832434) can0 201#0000000000000000
(1696758369.836957) can0 0A3#000000C111040640
(1696758369.842286) can0 302#3030232F09FFFFFF
(1696758369.843251) can0 0B0#E2000820FD020C00
(1696758369.844625) can0 0F7#01FC01A880000300
(1696758369.845641) can0 214#0000000000000000
(1696758369.847336) can0 230#0000000000120000
(1696758369.848317) can0 07D#0000000000000000
(1696758369.849301) can0 245#0001000000000040
(1696758369.850317) can0 07A#0000000000000000
(1696758369.851307) can0 160#0000000008000000
(1696758369.852313) can0 304#0000000000000000
(1696758369.853296) can0 06C#7A07FF0800000000
(1696758369.854262) can0 335#410100C000000000
(1696758369.855222) can0 440#00070000023A0488
(1696758369.856995) can0 102#0000001C8003EC67
(1696758369.862278) can0 0FD#D3609019E1000000
(1696758369.866288) can0 080#000003EC67C10505
(1696758369.867325) can0 0DF#0000000000000000
(1696758369.872271) can0 2A0#212F00000003EC44
(1696758369.873246) can0 07E#003B80A00004C020
(1696758369.874213) can0 110#400102FD00007F04
(1696758369.876950) can0 0A3#000000C111040640
(1696758369.877948) can0 180#1002000000000104
(1696758369.882311) can0 06C#7A07FFE800000000
(1696758369.887170) can0 07D#0000000000000000
(1696758369.889785) can0 07A#0000000000000000
(1696758369.892440) can0 301#0020300000000000
(1696758369.893407) can0 0B0#E2000820FD020C00
(1696758369.894357) can0 455#600440002003EC67
(1696758369.895315) can0 0F7#01FC01A880000300
(1696758369.896329) can0 214#0000000000000000
(1696758369.897331) can0 2F0#0000000040000000
(1696758369.898293) can0 310#8408000000900800
(1696758369.899275) can0 496#00017C2000000000
(1696758369.903641) can0 160#0000000008000000
(1696758369.903952) can0 501#0302000000000000
(1696758369.907033) can0 0DF#0000000000000000
(1696758369.908002) can0 400#0401020202010201
(1696758369.908973) can0 405#100000000053414C
(1696758369.912197) can0 06C#7A07FF6800000000
(1696758369.913148) can0 0FD#D3609019E1000000
(1696758369.916020) can0 080#000003EC67C10505
(1696758369.916980) can0 0A3#000000E111040640
(1696758369.917957) can0 102#0000001C8003EC67
(1696758369.922235) can0 07E#003B80A00004C020
(1696758369.923232) can0 201#0000000000000000
(1696758369.927094) can0 07D#0000000000000000
(1696758369.928085) can0 245#0001000000000040
(1696758369.929681) can0 07A#0000000000000000
(1696758369.932351) can0 110#400102FD00007F04
(1696758369.937056) can0 180#1002000000000104
(1696758369.942251) can0 06C#7A07FF6800000000
(1696758369.943205) can0 0B0#E2000820FD020C00
(1696758369.944558) can0 0F7#01FC01A880000300
(1696758369.945569) can0 214#0000000000000000
(1696758369.947158) can0 0DF#0000000000000000
(1696758369.948146) can0 230#0000000000120000
(1696758369.949098) can0 440#00070000023A0488
(1696758369.950082) can0 160#0000000008000000
(1696758369.956722) can0 0A3#000000C111040640
(1696758369.962210) can0 0FD#D3609019E1000000
(1696758369.965866) can0 080#000003EC67C10505
(1696758369.967043) can0 46B#01FFFFFFFFFFFFB0
(1696758369.968053) can0 07D#0000000000000000
(1696758369.969052) can0 4F0#00000000001B0000
(1696758369.970055) can0 07A#0000000000000000
(1696758369.971073) can0 304#0000000000000000
(1696758369.972270) can0 06C#7A07FF6800000000
(1696758369.973246) can0 07E#003B80A00004C020
(1696758369.976732) can0 102#0000001C8003EC67
(1696758369.982313) can0 330#000303EC4403EC67
(1696758369.987035) can0 0DF#0000000000000000
(1696758369.987965) can0 32A#1B0030C92003EC44
(1696758369.992170) can0 2A0#212F00000003EC44
(1696758369.993121) can0 0B0#E2000820FD020C00
(1696758369.994089) can0 110#400102FD00007F04
(1696758369.995047) can0 0F7#01FC01A880000300
(1696758369.996063) can0 214#0000000000000000
(1696758369.997020) can0 0A3#000000C111040640
(1696758369.998030) can0 180#1002000000000104
(1696758369.999725) can0 160#0000000008000000
(1696758370.002237) can0 06C#7A07FF6800000000
(1696758370.007108) can0 07D#0000000000000000
(1696758370.008093) can0 245#0001000000000040
(1696758370.009690) can0 07A#0000000000000000
(1696758370.012209) can0 0FD#D3609019E1000000
(1696758370.013207) can0 201#0000000000000000
(1696758370.014198) can0 301#0020300000000000
(1696758370.015196) can0 2F0#0000000040000000
(1696758370.016178) can0 080#000003EC67C10505
(1696758370.017147) can0 310#8408000000900800
(1696758370.018138) can0 4A0#01010000A4006C00
(1696758370.019109) can0 4C0#000000000003EC67
(1696758370.020084) can0 503#0412000003000000
(1696758370.022237) can0 07E#003B80A00004C020
(1696758370.023187) can0 302#3031232F09FFFFFF
(1696758370.027180) can0 0DF#0000000000000000
(1696758370.032227) can0 06C#7A07FF6800000000
(1696758370.035586) can0 488#0000000000005800
(1696758370.036673) can0 0A3#000000C111040640
(1696758370.037647) can0 102#0000001C8003EC67
(1696758370.042191) can0 4B0#04010100008030F3
(1696758370.043155) can0 0B0#E2000820FD020C00
(1696758370.044570) can0 0F7#01FC01A880000300
(1696758370.045585) can0 214#0000000000000000
(1696758370.047113) can0 230#0000000000120000
(1696758370.048128) can0 07D#0000000000000000
(1696758370.049084) can0 440#00070000023A0488
(1696758370.050098) can0 07A#0000000000000000
(1696758370.051090) can0 160#0000000008000000
(1696758370.052080) can0 4BA#0000000000000000
(1696758370.053047) can0 110#400102FD00007F04
(1696758370.057176) can0 180#1002000000000104
(1696758370.062217) can0 06C#7A07FF6800000000
(1696758370.063179) can0 0FD#D3609019E1000000
(1696758370.065919) can0 080#000003EC67C10505
(1696758370.067222) can0 0DF#0000000000000000
(1696758370.068221) can0 4D0#0000200000000000
(1696758370.072228) can0 07E#003B80A00004C020
(1696758370.076579) can0 0A3#000000C111040640
(1696758370.087089) can0 07D#0000000000000000
(1696758370.088073) can0 245#0001000000000040
(1696758370.089710) can0 07A#0000000000000000
(1696758370.090717) can0 304#0000000000000000
(1696758370.092301) can0 06C#7A07FF6800000000
(1696758370.093268) can0 0B0#E2000820FD020C00
(1696758370.094587) can0 0F7#01FC01A880000300
(1696758370.095601) can0 214#0000000000000000
(1696758370.096648) can0 102#0000001C8003EC67
(1696758370.103671) can0 160#0000000008000000
(1696758370.104200) can0 201#0000000000000000
(1696758370.107193) can0 0DF#0000000000000000
(1696758370.113456) can0 2A0#212F00000003EC44
(1696758370.113859) can0 0FD#D3609019E1000000
(1696758370.114392) can0 110#400102FD00007F04
(1696758370.115671) can0 080#000003EC67C10505
(1696758370.116662) can0 0A3#000000C111040640
(1696758370.117695) can0 180#1002000000000104
(1696758370.122367) can0 06C#7A07FF8800000000
(1696758370.123334) can0 07E#003B80A00004C020
(1696758370.127198) can0 07D#0000000000000000
(1696758370.129803) can0 07A#0000000000000000
(1696758370.131648) can0 504#0502002E04000000
(1696758370.132638) can0 301#0020300000000000
(1696758370.134726) can0 2F0#0000000040000000
(1696758370.137176) can0 310#8408000000900800
(1696758370.142496) can0 0B0#E2000820FD020C00
(1696758370.144684) can0 0F7#01FC01A880000300
(1696758370.145699) can0 214#0000000000000000
(1696758370.147250) can0 0DF#0000000000000000
(1696758370.148235) can0 230#0000000000120000
(1696758370.149188) can0 440#00070000023A0488
(1696758370.150178) can0 160#0000000008000000
(1696758370.151145) can0 335#410100C000000000
(1696758370.152137) can0 4F0#00000000001B0000
(1696758370.153149) can0 06C#7A07FF0800000000
(1696758370.156588) can0 0A3#000000C111040640
(1696758370.157562) can0 102#0000001C8003EC67
(1696758370.162419) can0 400#0502020202010201
(1696758370.163366) can0 0FD#D3609019E1000000
(1696758370.164309) can0 405#01604DC334A8FC10
(1696758370.165539) can0 080#000003EC67C10505
(1696758370.167253) can0 07D#0000000000000000
(1696758370.168247) can0 245#0001000000000040
(1696758370.169834) can0 07A#0000000000000000
(1696758370.172345) can0 07E#003B80A00004C020
(1696758370.173312) can0 110#400102FD00007F04
(1696758370.177214) can0 180#1002000000000104
(1696758370.182362) can0 06C#7A07FF0800000000
(1696758370.187160) can0 0DF#0000000000000000
(1696758370.192310) can0 490#0C00893DCC140000
(1696758370.193273) can0 0B0#E2000820FD020C00
(1696758370.194271) can0 201#0000000000000000
(1696758370.195231) can0 0F7#01FC01A880000300
(1696758370.196246) can0 214#0000000000000000
(1696758370.197206) can0 0A3#000000C111040640
(1696758370.198143) can0 455#600440002003EC67
(1696758370.199109) can0 48A#9580000070800080
(1696758370.200113) can0 160#0000000008000000
(1696758370.203563) can0 302#3031242F09FFFFFF
(1696758370.207115) can0 07D#0000000000000000
(1696758370.208076) can0 330#000303EC4403EC67
(1696758370.209713) can0 07A#0000000000000000
(1696758370.210721) can0 304#0000000000000000
(1696758370.212305) can0 06C#7A07FF0800000000
(1696758370.213256) can0 0FD#D3609019E1000000
(1696758370.214191) can0 32A#1B2030C92003EC44
(1696758370.215340) can0 080#000003EC67C10505
(1696758370.216449) can0 102#0000001C8003EC67
(1696758370.222253) can0 07E#003B80A00004C020
(1696758370.227066) can0 0DF#0000000000000000
(1696758370.232211) can0 2A0#212F00000003EC44
(1696758370.233176) can0 110#400102FD00007F04
(1696758370.236397) can0 0A3#000000E111040640
(1696758370.237400) can0 180#1002000000000104
(1696758370.240228) can0 505#1102002E05000000
(1696758370.242268) can0 06C#7A07FF0800000000
(1696758370.243234) can0 0B0#E2000820FD020C00
(1696758370.244610) can0 0F7#01FC01A880000300
(1696758370.245624) can0 214#0000000000000000
(1696758370.247136) can0 230#0000000000120000
(1696758370.248152) can0 07D#0000000000000000
(1696758370.249132) can0 245#0001000000000040
(1696758370.250146) can0 07A#0000000000000000
(1696758370.251139) can0 160#0000000008000000
(1696758370.252098) can0 440#00070000023A0488
(1696758370.253089) can0 301#0020300000000000
(1696758370.254665) can0 2F0#0000000040000000
(1696758370.257218) can0 310#8408000000900800
(1696758370.262193) can0 0FD#D3609019E1000000
(1696758370.265249) can0 080#000003EC67C10505
(1696758370.267096) can0 0DF#0000000000000000
(1696758370.272255) can0 06C#7A07FF0800000000
(1696758370.273230) can0 07E#003B80A00004C020
(1696758370.276366) can0 0A3#000000C111040640
(1696758370.277340) can0 102#0000001C8003EC67
(1696758370.282475) can0 201#0000000000000000
(1696758370.287149) can0 07D#0000000000000000
(1696758370.289734) can0 07A#0000000000000000
(1696758370.292236) can0 110#400102FD00007F04
(1696758370.293203) can0 0B0#E2000820FD020C00
(1696758370.294634) can0 0F7#01FC01A880000300
(1696758370.295649) can0 214#0000000000000000
(1696758370.297323) can0 180#1002000000000104
(1696758370.299728) can0 160#0000000008000000
(1696758370.315131) can0 06C#7A07FF0800000000
(1696758370.315520) can0 0DF#0000000000000000
(1696758370.316340) can0 0A3#000000C111040640
(1696758370.322355) can0 07E#003B80A00004C020
(1696758370.327194) can0 46B#02FFFFFFFFFFFFB0
(1696758370.328208) can0 07D#0000000000000000
(1696758370.329191) can0 245#0001000000000040
(1696758370.330205) can0 07A#0000000000000000
(1696758370.331211) can0 304#0000000000000000
(1696758370.332203) can0 4F0#00000000001B0000
(1696758370.333185) can0 06C#7A07FF0800000000
(1696758370.336382) can0 102#0000001C8003EC67
(1696758370.342548) can0 0B0#E2000820FD020C00
(1696758370.344736) can0 0F7#01FC01A880000300
(1696758370.345750) can0 214#0000000000000000
(1696758370.347286) can0 0DF#0000000000000000
(1696758370.348274) can0 230#0000000000120000
(1696758370.349233) can0 440#00070000023A0488
(1696758370.350225) can0 160#0000000008000000
(1696758370.352354) can0 2A0#212F00000003EC44
(1696758370.353320) can0 110#400102FD00007F04
(1696758370.354263) can0 511#4712002E05000000
(1696758370.356340) can0 0A3#000000C111040640
(1696758370.357496) can0 180#1002000000000104
(1696758370.362372) can0 06C#7A07FF0800000000
(1696758370.363323) can0 0FD#D3609019E1000000
(1696758370.365054) can0 080#000003EC67C10505
(1696758370.367269) can0 07D#0000000000000000
(1696758370.369852) can0 07A#0000000000000000
(1696758370.372394) can0 07E#003B80A00004C020
(1696758370.373393) can0 201#0000000000000000
(1696758370.374384) can0 301#0020300000000000
(1696758370.375375) can0 2F0#0000300040000000
(1696758370.377244) can0 310#8408000000900800
(1696758370.382353) can0 302#3030242F09FFFFFF
(1696758370.387326) can0 0DF#0000000000000000
(1696758370.392368) can0 06C#7A07FF0800000000
(1696758370.393335) can0 0B0#E2000820FD020C00
(1696758370.394758) can0 0F7#01FD01A880000300
(1696758370.395773) can0 214#0000000000000000
(1696758370.396731) can0 0A3#000000C111040640
(1696758370.397708) can0 102#0000001C8003EC67
(1696758370.398699) can0 488#0000000000005800
(1696758370.399874) can0 160#0000000008000000
(1696758370.408072) can0 400#0602010002010101
(1696758370.408383) can0 07D#0000000000000000
(1696758370.409079) can0 245#0001000000000040
(1696758370.410095) can0 07A#0000000000000000
(1696758370.411038) can0 405#023AFF003103EC67
(1696758370.412285) can0 0FD#D3609019E1000000
(1696758370.413252) can0 110#400102FD00007F04
(1696758370.414856) can0 080#000003EC67C10505
(1696758370.417144) can0 180#1002000000000104
(1696758370.422265) can0 06C#7A07FF0800000000
(1696758370.423239) can0 07E#003B80A00004C020
(1696758370.427095) can0 0DF#0000000000000000
(1696758370.432415) can0 330#000303EC4403EC67
(1696758370.436113) can0 0A3#000000C111040640
(1696758370.437113) can0 32A#1B2030C92003EC44
(1696758370.442471) can0 0B0#E2000820FD020C00
(1696758370.444652) can0 0F7#01FC01A880000300
(1696758370.445667) can0 214#0000000000000000
(1696758370.447186) can0 230#0000000000120000
(1696758370.448199) can0 07D#0000000000000000
(1696758370.449158) can0 440#00070000023A0488
(1696758370.450173) can0 07A#0000000000000000
(1696758370.451164) can0 160#0000000008000000
(1696758370.452181) can0 304#0000000000000000
(1696758370.453155) can0 06C#7A07FF0800000000
(1696758370.454122) can0 335#410100C000000000
(1696758370.456144) can0 102#0000001C8003EC67
(1696758370.462267) can0 0FD#D3609019E1000000
(1696758370.463261) can0 201#0000000000000000
(1696758370.464706) can0 080#000003EC67C10505
(1696758370.465682) can0 547#0112002E05000000
(1696758370.467163) can0 0DF#0000000000000000
(1696758370.472369) can0 2A0#212F00000003EC44
(1696758370.473344) can0 07E#003B80A00004C020
(1696758370.474311) can0 110#400102FD00007F04
(1696758370.476092) can0 0A3#000000C111040640
(1696758370.477183) can0 180#1002000000000104
(1696758370.482301) can0 06C#7A07FF0800000000
(1696758370.487173) can0 07D#0000000000000000
(1696758370.488157) can0 245#0001000000000040
(1696758370.489748) can0 07A#0000000000000000
(1696758370.492315) can0 301#0020300000000000
(1696758370.493281) can0 0B0#E2000820FD020C00
(1696758370.494233) can0 455#600440002003EC67
(1696758370.495192) can0 0F7#01FC01A880000300
(1696758370.496207) can0 214#0000000000000000
(1696758370.497198) can0 2F0#0000100040000000
(1696758370.498165) can0 310#8408000000900800
(1696758370.499147) can0 496#00017C2000000000
(1696758370.500139) can0 160#0000000008000000
(1696758370.508676) can0 0DF#0000000000000000
(1696758370.509065) can0 4F0#00000000001B0000
(1696758370.512423) can0 06C#7A07FF0800000000
(1696758370.513374) can0 0FD#D3609019E1000000
(1696758370.514698) can0 080#000003EC67C10505
(1696758370.516190) can0 0A3#000000E111040640
(1696758370.517164) can0 102#0000001C8003EC67
(1696758370.522567) can0 07E#003B80A00004C020
(1696758370.527285) can0 07D#0000000000000000
(1696758370.529875) can0 07A#0000000000000000
(1696758370.532426) can0 110#400102FD00007F04
(1696758370.537316) can0 180#1002000000000104
(1696758370.542427) can0 06C#7A07FF0800000000
(1696758370.543393) can0 0B0#E2000820FD020C00
(1696758370.544793) can0 0F7#01FC01A880000300
(1696758370.545808) can0 214#0000000000000000
(1696758370.547346) can0 0DF#0000000000000000
(1696758370.548332) can0 230#0000000000120000
(1696758370.549292) can0 440#00070000023A0488
(1696758370.550282) can0 160#0000000008000000
(1696758370.552676) can0 201#0000000000000000
(1696758370.556068) can0 0A3#000000C111040640
(1696758370.562401) can0 0FD#D3609019E1000000
(1696758370.563355) can0 302#3031242F09FFFFFF
(1696758370.564600) can0 080#000003EC67C10505
(1696758370.567427) can0 07D#0000000000000000
(1696758370.568405) can0 245#0001000000000040
(1696758370.569885) can0 07A#0000000000000000
(1696758370.570891) can0 304#0000000000000000
(1696758370.572483) can0 06C#7A07FF0800000000
(1696758370.573458) can0 07E#003B80A00004C020
(1696758370.574433) can0 501#030220A001000000
(1696758370.576156) can0 102#0000001C8003EC67
(1696758370.587274) can0 0DF#0000000000000000
(1696758370.592394) can0 2A0#212F00000003EC44
(1696758370.593360) can0 0B0#E2000820FD020C00
(1696758370.594327) can0 110#400102FD00007F04
(1696758370.595285) can0 0F7#01FC01A880000300
(1696758370.596243) can0 0A3#000000C111040640
(1696758370.597259) can0 214#0000000000000000
(1696758370.598256) can0 180#1002000000000104
(1696758370.599895) can0 160#0000000008000000
(1696758370.606141) can0 06C#7A07FF0800000000
(1696758370.607338) can0 07D#0000000000000000
(1696758370.609767) can0 07A#0000000000000000
(1696758370.612301) can0 0FD#D3609019E1000000
(1696758370.613292) can0 301#0020300000000000
(1696758370.614353) can0 080#000003EC67C10505
(1696758370.615344) can0 2F0#0000100040000000
(1696758370.617200) can0 310#8408000000900800
(1696758370.622337) can0 07E#003B80A00004C020
(1696758370.627160) can0 0DF#0000000000000000
(1696758370.632352) can0 06C#7A07FF0800000000
(1696758370.635891) can0 0A3#000000C111040640
(1696758370.636866) can0 102#0000001C8003EC67
(1696758370.642292) can0 490#0C00893DCC160000
(1696758370.643257) can0 0B0#E2000820FD020C00
(1696758370.644255) can0 201#0000000000000000
(1696758370.645214) can0 0F7#01FC01A880000300
(1696758370.646229) can0 214#0000000000000000
(1696758370.647220) can0 230#0000000000120000
(1696758370.648235) can0 07D#0000000000000000
(1696758370.649217) can0 245#0001000000000040
(1696758370.650233) can0 07A#0000000000000000
(1696758370.651224) can0 160#0000000008000000
(1696758370.652182) can0 440#00070000023A0488
(1696758370.653151) can0 110#400102FD00007F04
(1696758370.654102) can0 48A#9580008212800080
(1696758370.657441) can0 180#1002000000000104
(1696758370.658389) can0 330#000303EC4403EC67
(1696758370.662277) can0 400#0701010201020101
(1696758370.663259) can0 06C#7A07FF0800000000
(1696758370.664240) can0 080#000003EC67C10505
(1696758370.665191) can0 0FD#D3609019E1000000
(1696758370.666126) can0 32A#1B2030C92003EC44
(1696758370.667125) can0 405#0000000000000000
(1696758370.668134) can0 0DF#0000000000000000
(1696758370.672372) can0 07E#003B80A00004C020
(1696758370.675865) can0 0A3#000000C111040640
(1696758370.684721) can0 503#0412000003000000
(1696758370.687136) can0 46B#02FFFFFFFFFFFF30
(1696758370.688152) can0 07D#0000000000000000
(1696758370.689142) can0 4F0#00000000001B0000
(1696758370.690158) can0 07A#0000000000000000
(1696758370.691165) can0 304#0000000000000000
(1696758370.692413) can0 06C#7A07FF0800000000
(1696758370.693379) can0 0B0#E2000820FD020C00
(1696758370.694731) can0 0F7#01FC01A880000300
(1696758370.695745) can0 214#0000000000000000
(1696758370.696719) can0 102#0000001C8003EC67
(1696758370.699767) can0 160#0000000008000000
(1696758370.707335) can0 0DF#0000000000000000
(1696758370.712403) can0 2A0#212F00000003EC44
(1696758370.713354) can0 0FD#D3609019E1000000
(1696758370.714335) can0 080#000003EC67C10505
(1696758370.715302) can0 110#400102FD00007F04
(1696758370.716261) can0 0A3#000000C111040640
(1696758370.717359) can0 180#1002000000000104
(1696758370.722477) can0 06C#7A07FF0800000000
(1696758370.723451) can0 07E#003B80A00004C020
(1696758370.727328) can0 07D#0000000000000000
(1696758370.728305) can0 245#0001000000000040
(1696758370.729896) can0 07A#0000000000000000
(1696758370.732496) can0 301#0020300000000000
(1696758370.733495) can0 201#0000000000000000
(1696758370.734469) can0 4C0#000000000003EC67
(1696758370.735460) can0 2F0#0000100040000000
(1696758370.737329) can0 4A0#01010000A7C8FE94
(1696758370.738269) can0 310#8408000000900800
(1696758370.742550) can0 302#3031242F09FFFFFF
(1696758370.743516) can0 0B0#E2000820FD020C00
(1696758370.744827) can0 0F7#01FC01A880000300
(1696758370.745841) can0 214#0000000000000000
(1696758370.747396) can0 0DF#0000000000000000
(1696758370.748384) can0 230#0000000000120000
(1696758370.749342) can0 440#00070000023A0488
(1696758370.750333) can0 160#0000000008000000
(1696758370.751301) can0 335#410100C000000000
(1696758370.752539) can0 06C#7A07FF0800000000
(1696758370.754129) can0 488#0000000000005800
(1696758370.755742) can0 0A3#000000C111040640
(1696758370.756715) can0 102#0000001C8003EC67
(1696758370.762405) can0 4B0#84010100008030F3
(1696758370.763355) can0 0FD#D3609019E1000000
(1696758370.764336) can0 080#000003EC67C10505
(1696758370.767323) can0 4BA#0000000000000000
(1696758370.768309) can0 07D#0000000000000000
(1696758370.769909) can0 07A#0000000000000000
(1696758370.772492) can0 07E#003B80A00004C020
(1696758370.773459) can0 110#400102FD00007F04
(1696758370.777347) can0 180#1002000000000104
(1696758370.782475) can0 06C#7A07FF0800000000
(1696758370.787319) can0 0DF#0000000000000000
(1696758370.788292) can0 4D0#0000200000000000
(1696758370.790831) can0 504#0502002E04000000
(1696758370.792693) can0 0B0#E2000820FD020C00
(1696758370.793644) can0 455#600440002003EC67
(1696758370.794835) can0 0F7#01FC01A880000300
(1696758370.795793) can0 0A3#000000C111040640
(1696758370.796807) can0 214#0000000000000000
(1696758370.799905) can0 160#0000000008000000
(1696758370.807361) can0 07D#0000000000000000
(1696758370.808260) can0 245#0001000000000040
(1696758370.809794) can0 07A#0000000000000000
(1696758370.810801) can0 304#0000000000000000
(1696758370.812409) can0 06C#7A07FF0800000000
(1696758370.813360) can0 0FD#D3609019E1000000
(1696758370.814333) can0 080#000003EC67C18505
(1696758370.815714) can0 102#0000001C8003EC67
(1696758370.822372) can0 07E#003B80A00004C020
(1696758370.823369) can0 201#0000000000000000
(1696758370.827218) can0 0DF#0000000000000000
(1696758370.832321) can0 2A0#212F00000003EC44
(1696758370.833287) can0 110#400102FD00007F04
(1696758370.835627) can0 0A3#000000E111040640
(1696758370.837406) can0 180#1002000000000104
(1696758370.842348) can0 06C#7A07FF0800000000
(1696758370.843314) can0 0B0#E2000820FD020C00
(1696758370.844753) can0 0F7#01FC01A880000300
(1696758370.845769) can0 214#0000000000000000
(1696758370.847264) can0 230#0000000000120000
(1696758370.848278) can0 07D#0000000000000000
(1696758370.849237) can0 440#00070000023A0488
(1696758370.850253) can0 07A#0000000000000000
(1696758370.851244) can0 160#0000000008000000
(1696758370.852452) can0 301#0020300000000000
(1696758370.854797) can0 2F0#0000100040000000
(1696758370.857365) can0 310#8408000000900800
(1696758370.862284) can0 0FD#D3609019E1000000
(1696758370.863751) can0 080#000003EC67C10505
(1696758370.867215) can0 0DF#0000000000000000
(1696758370.868205) can0 4F0#00000000001B0000
(1696758370.872365) can0 06C#7A07FF0800000000
(1696758370.873340) can0 07E#003B80A00004C020
(1696758370.875616) can0 0A3#000000C111040640
(1696758370.876606) can0 102#0000001C8003EC67
(1696758370.882344) can0 330#000303EC4403EC67
(1696758370.887248) can0 07D#0000000000000000
(1696758370.888231) can0 245#0001000000000040
(1696758370.889166) can0 32A#1B0030C92003EC44
(1696758370.890181) can0 07A#0000000000000000
(1696758370.892365) can0 110#400102FD00007F04
(1696758370.893331) can0 0B0#E2000820FD020C00
(1696758370.894762) can0 0F7#01FC01A880000300
(1696758370.895777) can0 214#0000000000000000
(1696758370.897330) can0 180#1002000000000104
(1696758370.898683) can0 505#1102002E05000000
(1696758370.899827) can0 160#0000000008000000
(1696758370.902386) can0 06C#7A07FF0800000000
(1696758370.907417) can0 0DF#0000000000000000
(1696758370.908253) can0 400#0802551606020101
(1696758370.909253) can0 405#0000000000000000
(1696758370.912421) can0 0FD#D3609019E1000000
(1696758370.913419) can0 201#0000000000000000
(1696758370.914400) can0 080#000003EC67C10505
(1696758370.915685) can0 0A3#000000C111040640
(1696758370.922440) can0 07E#003B80A00004C020
(1696758370.923397) can0 302#3031242F09FFFFFF
(1696758370.927494) can0 07D#0000000000000000
(1696758370.929916) can0 07A#0000000000000000
(1696758370.930922) can0 304#0000000000000000
(1696758370.932521) can0 06C#7A07FF0800000000
(1696758370.935668) can0 102#0000001C8003EC67
(1696758370.942717) can0 0B0#E2000820FD020C00
(1696758370.944872) can0 0F7#01FD01A880000300
(1696758370.945887) can0 214#0000000000000000
(1696758370.947410) can0 0DF#0000000000000000
(1696758370.948394) can0 230#0000000000120000
(1696758370.949353) can0 440#00070000023A0488
(1696758370.950343) can0 160#0000000008000000
(1696758370.952431) can0 2A0#212F00000003EC44
(1696758370.953399) can0 110#400102FD00007F04
(1696758370.955605) can0 0A3#000000C111040640
(1696758370.957563) can0 180#1002000000000104
(1696758370.962437) can0 06C#7A07FF0800000000
(1696758370.963389) can0 0FD#D3609019E1000000
(1696758370.964369) can0 080#000003EC67C10505
(1696758370.967381) can0 07D#0000000000000000
(1696758370.968359) can0 245#0001000000000040
(1696758370.969942) can0 07A#0000000000000000
(1696758370.972646) can0 07E#003B80A00004C020
(1696758370.973637) can0 301#0020300000000000
(1696758370.974923) can0 2F0#0000100040000000
(1696758370.977357) can0 310#8408000000900800
(1696758370.987316) can0 0DF#0000000000000000
(1696758370.992448) can0 06C#7A07FF0800000000
(1696758370.993414) can0 0B0#E2000820FD020C00
(1696758370.994893) can0 0F7#01FC01A880000300
(1696758370.995851) can0 0A3#000000C111040640
(1696758370.996824) can0 102#0000001C8003EC67
(1696758370.997842) can0 214#0000000000000000
(1696758370.999926) can0 160#0000000008000000
(1696758371.002787) can0 201#0000000000000000
(1696758371.008120) can0 07D#0000000000000000
(1696758371.009818) can0 07A#0000000000000000
(1696758371.012489) can0 0FD#D3609019E1000000
(1696758371.013470) can0 080#000003EC67C10505
(1696758371.014456) can0 110#400102FD00007F04
(1696758371.015379) can0 511#4712002E05000000
(1696758371.017243) can0 180#1002000000000104
(1696758371.022355) can0 06C#7A07FF0800000000
(1696758371.023330) can0 07E#003B80A00004C020
(1696758371.027234) can0 0DF#0000000000000000
(1696758371.035393) can0 0A3#000000C111040640
(1696758371.042634) can0 0B0#E2000820FD020C00
(1696758371.044785) can0 0F7#01FC01A880000300
(1696758371.045799) can0 214#0000000000000000
(1696758371.047320) can0 230#0000000000120000
(1696758371.048308) can0 07D#0000000000000000
(1696758371.049291) can0 245#0001000000000040
(1696758371.050306) can0 07A#0000000000000000
(1696758371.051297) can0 160#0000000008000000
(1696758371.052303) can0 304#0000000000000000
(1696758371.053285) can0 06C#7A07FF0800000000
(1696758371.054252) can0 335#410100C000000000
(1696758371.055212) can0 440#00070000023A0488
(1696758371.056185) can0 102#0000001C8003EC67
(1696758371.057168) can0 46B#03FFFFFFFFFFFFB0
(1696758371.058160) can0 4F0#00000000001B0000
(1696758371.062496) can0 0FD#D3609019E1000000
(1696758371.063475) can0 080#000003EC67C10505
(1696758371.067228) can0 0DF#0000000000000000
(1696758371.072291) can0 2A0#212F00000003EC44
(1696758371.073265) can0 07E#003B80A00004C020
(1696758371.074233) can0 110#400102FD00007F04
(1696758371.075389) can0 0A3#000000C111040640
(1696758371.077317) can0 180#1002000000000104
(1696758371.082311) can0 06C#7A07FF0800000000
(1696758371.087271) can0 07D#0000000000000000
(1696758371.089830) can0 07A#0000000000000000
(1696758371.092261) can0 490#0C00893DCC170000
(1696758371.093228) can0 0B0#E2000820FD020C00
(1696758371.094226) can0 201#0000000000000000
(1696758371.095186) can0 0F7#01FC01A880000300
(1696758371.096201) can0 214#0000000000000000
(1696758371.097192) can0 2F0#0000100040000000
(1696758371.098182) can0 301#0020300000000000
(1696758371.099148) can0 310#8408000000900800
(1696758371.100139) can0 160#0000000008000000
(1696758371.101090) can0 455#600440002003EC67
(1696758371.102039) can0 48A#9580000212800080
(1696758371.102998) can0 302#3030242F09FFFFFF
(1696758371.103989) can0 496#00017C2000000000
(1696758371.107963) can0 0DF#0000000000000000
(1696758371.108491) can0 330#000303EC4403EC67
(1696758371.112440) can0 06C#7A07FF0800000000
(1696758371.113421) can0 080#000003EC67C10505
(1696758371.114372) can0 0FD#D3609019E1000000
(1696758371.115306) can0 32A#1B2030C92003EC44
(1696758371.116264) can0 0A3#000000E111040640
(1696758371.117238) can0 102#0000001C8003EC67
(1696758371.118233) can0 488#0000000000005800
(1696758371.122500) can0 07E#003B80A00004C020
(1696758371.124946) can0 547#0112000047000000
(1696758371.127397) can0 07D#0000000000000000
(1696758371.128377) can0 245#0001000000000040
(1696758371.129936) can0 07A#0000000000000000
(1696758371.132439) can0 110#400102FD00007F04
(1696758371.137403) can0 180#1002000000000104
(1696758371.142425) can0 06C#7A07FF0800000000
(1696758371.143391) can0 0B0#E2000820FD020C00
(1696758371.144925) can0 0F7#01FC01A880000300
(1696758371.145941) can0 214#0000000000000000
(1696758371.147577) can0 0DF#0000000000000000
(1696758371.148561) can0 230#0000000000120000
(1696758371.149521) can0 440#00070000023A0488
(1696758371.150512) can0 160#0000000008000000
(1696758371.155203) can0 0A3#000000C111040640
(1696758371.162381) can0 400#0903020302010324
(1696758371.163330) can0 0FD#D3609019E1000000
(1696758371.164312) can0 080#000003EC67C10505
(1696758371.165254) can0 405#01604DC334B203EF
(1696758371.167417) can0 07D#0000000000000000
(1696758371.169972) can0 07A#0000000000000000
(1696758371.170979) can0 304#0000000000000000
(1696758371.172523) can0 06C#7A07FF0800000000
(1696758371.173498) can0 07E#003B80A00004C020
(1696758371.175382) can0 102#0000001C8003EC67
(1696758371.182825) can0 201#0000000000000000
(1696758371.187392) can0 0DF#0000000000000000
(1696758371.192412) can0 2A0#212F00000003EC44
(1696758371.193377) can0 0B0#E2000820FD020C00
(1696758371.194344) can0 110#400102FD00007F04
(1696758371.195312) can0 0F7#01FD01A880000300
(1696758371.196269) can0 0A3#000000C111040640
(1696758371.197285) can0 214#0000000000000000
(1696758371.198283) can0 180#1002000000000104
(1696758371.199970) can0 160#0000000008000000
(1696758371.202481) can0 06C#7A07FF0800000000
(1696758371.208849) can0 07D#0000000000000000
(1696758371.209160) can0 245#0001000000000040
(1696758371.209838) can0 07A#0000000000000000
(1696758371.212334) can0 0FD#D3609019E1000000
(1696758371.213315) can0 080#000003EC67C10505
(1696758371.214307) can0 301#0020300000000000
(1696758371.215297) can0 2F0#0000100040000000
(1696758371.217318) can0 310#8408000000900800
(1696758371.222345) can0 07E#003B80A00004C020
(1696758371.227282) can0 0DF#0000000000000000
(1696758371.228273) can0 4F0#00000000001B0000
(1696758371.232369) can0 06C#7A07FF0800000000
(1696758371.233344) can0 501#030220A001000000
(1696758371.235141) can0 0A3#000000C111040640
(1696758371.236115) can0 102#0000001C8003EC67
(1696758371.242694) can0 0B0#E2000820FD020C00
(1696758371.244837) can0 0F7#01FD01A880000300
(1696758371.245852) can0 214#0000000000000000
(1696758371.247366) can0 230#0000000000120000
(1696758371.248376) can0 07D#0000000000000000
(1696758371.249341) can0 440#00070000023A0488
(1696758371.250351) can0 07A#0000000000000000
(1696758371.251342) can0 160#0000000008000000
(1696758371.252381) can0 110#400102FD00007F04
(1696758371.257499) can0 180#1002000000000104
(1696758371.262343) can0 06C#7A07FF0800000000
(1696758371.263323) can0 080#000003EC67C10505
(1696758371.264274) can0 0FD#D3609019E1000000
(1696758371.267317) can0 0DF#0000000000000000
(1696758371.272369) can0 07E#003B80A00004C020
(1696758371.273367) can0 201#0000000000000000
(1696758371.275108) can0 0A3#000000C111040640
(1696758371.282491) can0 302#3031252F09FFFFFF
(1696758371.287352) can0 07D#0000000000000000
(1696758371.288331) can0 245#0001000000000040
(1696758371.289851) can0 07A#0000000000000000
(1696758371.290858) can0 304#0000000000000000
(1696758371.292394) can0 06C#7A07FF0800000000
(1696758371.293360) can0 0B0#E2000820FD020C00
(1696758371.294872) can0 0F7#01FD01A880000300
(1696758371.295846) can0 102#0000001C8003EC67
(1696758371.296861) can0 214#0000000000000000
(1696758371.299864) can0 160#0000000008000000
(1696758371.308961) can0 0DF#0000000000000000
(1696758371.312424) can0 2A0#212F00000003EC44
(1696758371.313396) can0 080#000003EC67C18505
(1696758371.314348) can0 0FD#D3609019E1000000
(1696758371.315305) can0 0A3#000000C111040640
(1696758371.316272) can0 110#400102FD00007F04
(1696758371.317475) can0 180#1002000000000104
(1696758371.322464) can0 06C#7A07FF0800000000
(1696758371.323440) can0 07E#003B80A00004C020
(1696758371.327475) can0 07D#0000000000000000
(1696758371.329966) can0 07A#0000000000000000
(1696758371.332646) can0 301#0020300000000000
(1696758371.333597) can0 330#000303EC4403EC67
(1696758371.334997) can0 2F0#0000300040000000
(1696758371.337456) can0 310#8408000000900800
(1696758371.338386) can0 32A#1B2030C92003EC44
(1696758371.342849) can0 0B0#E2000820FD020C00
(1696758371.344968) can0 0F7#01FD01B080000300
(1696758371.345983) can0 214#0000000000000000
(1696758371.346959) can0 503#0412000003000000
(1696758371.347967) can0 0DF#0000000000000000
(1696758371.348953) can0 230#0000000000120000
(1696758371.349912) can0 440#00070000023A0488
(1696758371.350904) can0 160#0000000008000000
(1696758371.351871) can0 335#410100C000000000
(1696758371.352855) can0 06C#7A07FF0800000000
(1696758371.355115) can0 0A3#000000C111040640
(1696758371.356091) can0 102#0000001C8003EC67
(1696758371.362449) can0 0FD#D3609019E1000000
(1696758371.363424) can0 080#000003EC67C10505
(1696758371.364422) can0 201#0000000000000000
(1696758371.367514) can0 07D#0000000000000000
(1696758371.368492) can0 245#0001000000000040
(1696758371.369963) can0 07A#0000000000000000
(1696758371.372484) can0 07E#003B80A00004C020
(1696758371.373450) can0 110#400102FD00007F04
(1696758371.377587) can0 180#1002000000000104
(1696758371.382475) can0 06C#7A07FF0800000000
(1696758371.387423) can0 0DF#0000000000000000
(1696758371.392855) can0 0B0#E2000820FD020C00
(1696758371.393805) can0 455#600440002003EC67
(1696758371.394973) can0 0F7#01FC01B080000300
(1696758371.395930) can0 0A3#000000C111040640
(1696758371.396945) can0 214#0000000000000000
(1696758371.399979) can0 160#0000000008000000
(1696758371.409658) can0 400#0A01010200001234
(1696758371.409970) can0 07D#0000000000000000
(1696758371.410626) can0 07A#0000000000000000
(1696758371.411314) can0 304#0000000000000000
(1696758371.412290) can0 46B#04FFFFFFFFFFFFB0
(1696758371.413273) can0 06C#7A07FF0800000000
(1696758371.414253) can0 080#000003EC67C10505
(1696758371.415204) can0 0FD#D3609019E1000000
(1696758371.416178) can0 102#0000001C8003EC67
(1696758371.417169) can0 4F0#00000000001B0000
(1696758371.422377) can0 07E#003B80A00004C020
(1696758371.427351) can0 0DF#0000000000000000
(1696758371.432375) can0 2A0#212F00000003EC44
(1696758371.433341) can0 110#400102FD00007F04
(1696758371.434938) can0 0A3#000000E111040640
(1696758371.437412) can0 180#1002000000000104
(1696758371.442420) can0 06C#7A07FF0800000000
(1696758371.443367) can0 0B0#E2000820FD020C00
(1696758371.444917) can0 0F7#01FC01B080000300
(1696758371.445935) can0 214#0000000000000000
(1696758371.447443) can0 230#0000000000120000
(1696758371.448438) can0 07D#0000000000000000
(1696758371.449425) can0 245#0001000000000040
(1696758371.450436) can0 07A#0000000000000000
(1696758371.451427) can0 160#0000000008000000
(1696758371.452386) can0 440#00070000023A0488
(1696758371.455218) can0 201#0000000000000000
(1696758371.455538) can0 301#0020300000000000
(1696758371.456302) can0 4C0#000000000003EC67
(1696758371.457445) can0 4A0#01010000A7C8FE94
(1696758371.458415) can0 310#8408000000900800
(1696758371.459962) can0 504#0502002E04000000
(1696758371.462313) can0 080#000003EC67C10505
(1696758371.463263) can0 0FD#D3609019E1000000
(1696758371.464221) can0 302#3031252F09FFFFFF
(1696758371.467480) can0 0DF#0000000000000000
(1696758371.472267) can0 488#0000000000005800
(1696758371.473250) can0 06C#7A07FF0800000000
(1696758371.474224) can0 07E#003B80A00004C020
(1696758371.475181) can0 0A3#000000C111040640
(1696758371.476165) can0 102#0000001C8003EC67
(1696758371.482367) can0 4B0#84010100008030F3
(1696758371.487364) can0 4BA#0000000000000000
(1696758371.488388) can0 07D#0000000000000000
(1696758371.489891) can0 07A#0000000000000000
(1696758371.492402) can0 110#400102FD00007F04
(1696758371.493362) can0 0B0#E2000820FD020C00
(1696758371.494939) can0 0F7#01FC01B080000300
(1696758371.495953) can0 214#0000000000000000
(1696758371.497490) can0 180#1002000000000104
(1696758371.499879) can0 160#0000000008000000
(1696758371.502399) can0 06C#7A07FF0800000000
(1696758371.507395) can0 0DF#0000000000000000
(1696758371.508392) can0 4D0#0000200000000000
(1696758371.512165) can0 080#000003EC67C10505
(1696758371.513116) can0 0FD#D3609019E1000000
(1696758371.514849) can0 0A3#000000C111040640
(1696758371.522402) can0 07E#003B80A00004C020
(1696758371.527437) can0 07D#0000000000000000
(1696758371.528417) can0 245#0001000000000040
(1696758371.529888) can0 07A#0000000000000000
(1696758371.530895) can0 304#0000000000000000
(1696758371.532455) can0 06C#7A07FF0800000000
(1696758371.534803) can0 102#0000001C8003EC67
(1696758371.542387) can0 490#0C00893DCC180000
(1696758371.543341) can0 0B0#E2000820FD020C00
(1696758371.544340) can0 201#0000000000000000
(1696758371.545301) can0 0F7#01FC01B080000300
(1696758371.546325) can0 214#0000000000000000
(1696758371.547283) can0 48A#9580008236800080
(1696758371.548322) can0 0DF#0000000000000000
(1696758371.549278) can0 230#0000000000120000
(1696758371.550271) can0 160#0000000008000000
(1696758371.551222) can0 440#00070000023A0488
(1696758371.552582) can0 2A0#212F00000003EC44
(1696758371.553557) can0 110#400102FD00007F04
(1696758371.554779) can0 0A3#000000C111040640
(1696758371.557674) can0 180#1002000000000104
(1696758371.558618) can0 330#000303EC4403EC67
(1696758371.562066) can0 080#000003EC67C10505
(1696758371.563049) can0 06C#7A07FF0800000000
(1696758371.564001) can0 0FD#D3609019E1000000
(1696758371.564935) can0 32A#1B2030C92003EC44
(1696758371.567074) can0 505#1102002E05000000
(1696758371.568100) can0 07D#0000000000000000
(1696758371.569908) can0 07A#0000000000000000
(1696758371.572441) can0 07E#003B80A00004C020
(1696758371.573434) can0 301#0020300000000000
(1696758371.574952) can0 2F0#0000100040000000
(1696758371.577441) can0 310#8408000000900800
(1696758371.587396) can0 0DF#0000000000000000
(1696758371.588386) can0 4F0#00000000001B0000
(1696758371.592417) can0 06C#7A07FF0800000000
(1696758371.593384) can0 0B0#E2000820FD020C00
(1696758371.594716) can0 0A3#000000C111040640
(1696758371.595683) can0 0F7#01FC01B080000300
(1696758371.596657) can0 102#0000001C8003EC67
(1696758371.597674) can0 214#0000000000000000
(1696758371.599890) can0 160#0000000008000000
(1696758371.607474) can0 07D#0000000000000000
(1696758371.608460) can0 245#0001000000000040
(1696758371.609896) can0 07A#0000000000000000
(1696758371.611939) can0 080#000003EC67C10505
(1696758371.612892) can0 0FD#D3609019E1000000
(1696758371.613859) can0 110#400102FD00007F04
(1696758371.617470) can0 180#1002000000000104
(1696758371.622430) can0 06C#7A07FF0800000000
(1696758371.623399) can0 07E#003B80A00004C020
(1696758371.627404) can0 0DF#0000000000000000
(1696758371.632851) can0 201#0000000000000000
(1696758371.634624) can0 0A3#000000C111040640
(1696758371.642401) can0 302#3030252F09FFFFFF
(1696758371.643367) can0 0B0#E2000820FD020C00
(1696758371.644927) can0 0F7#01FD01B080000300
(1696758371.645941) can0 214#0000000000000000
(1696758371.650167) can0 230#0000000000120000
(1696758371.650590) can0 07A#0000000000000000
(1696758371.650900) can0 07D#0000000000000000
(1696758371.651555) can0 160#0000000008000000
(1696758371.652560) can0 06C#7A07FF0800000000
(1696758371.653567) can0 304#0000000000000000
(1696758371.654534) can0 335#410100C000000000
(1696758371.655508) can0 102#0000001C8003EC67
(1696758371.661680) can0 080#000003EC67C10505
(1696758371.662629) can0 0FD#D3609019E1000000
(1696758371.663631) can0 400#0B00000001060100
(1696758371.664596) can0 405#05000000000008CA
(1696758371.667428) can0 0DF#0000000000000000
(1696758371.672418) can0 2A0#212F00000003EC44
(1696758371.673391) can0 07E#003B80A00004C020
(1696758371.674360) can0 110#400102FD00007F04
(1696758371.675317) can0 0A3#000000C111040640
(1696758371.676269) can0 511#4712002E05000000
(1696758371.677511) can0 180#1002000000000104
(1696758371.682446) can0 06C#7A07FF0800000000
(1696758371.687608) can0 07D#0000000000000000
(1696758371.688563) can0 245#0001000000000040
(1696758371.689899) can0 07A#0000000000000000
(1696758371.692459) can0 301#0020300000000000
(1696758371.693425) can0 0B0#E2000820FD020C00
(1696758371.694375) can0 455#600440002003EC67
(1696758371.695342) can0 0F7#01FD01B080000300
(1696758371.696357) can0 214#0000000000000000
(1696758371.697351) can0 2F0#0000100040000000
(1696758371.698325) can0 310#8408000000900800
(1696758371.699307) can0 496#00017C2000000000
(1696758371.700299) can0 160#0000000008000000
(1696758371.710406) can0 0DF#0000000000000000
(1696758371.711793) can0 080#000003EC67C10505
(1696758371.712776) can0 06C#7A07FF0800000000
(1696758371.713727) can0 0FD#D3609019E1000000
(1696758371.714685) can0 0A3#000000E111040640
(1696758371.715659) can0 102#0000001C8003EC67
(1696758371.722556) can0 07E#003B80A00004C020
(1696758371.723553) can0 201#0000000000000000
(1696758371.727589) can0 07D#0000000000000000
(1696758371.730016) can0 07A#0000000000000000
(1696758371.732552) can0 110#400102FD00007F04
(1696758371.737684) can0 180#1002000000000104
(1696758371.742543) can0 06C#7A07FF0800000000
(1696758371.743514) can0 0B0#E2000820FD020C00
(1696758371.745062) can0 0F7#01FD01B080000300
(1696758371.746077) can0 214#0000000000000000
(1696758371.747633) can0 0DF#0000000000000000
(1696758371.748616) can0 230#0000000000120000
(1696758371.749575) can0 440#00070000023A0488
(1696758371.750567) can0 160#0000000008000000
(1696758371.754609) can0 0A3#000000C111040640
(1696758371.761939) can0 080#000003EC67C10505
(1696758371.762888) can0 0FD#D3609019E1000000
(1696758371.767542) can0 46B#05FFFFFFFFFFFFB0
(1696758371.768541) can0 07D#0000000000000000
(1696758371.769524) can0 245#0001000000000040
(1696758371.770539) can0 07A#0000000000000000
(1696758371.771546) can0 304#0000000000000000
(1696758371.772538) can0 4F0#00000000001B0000
(1696758371.773522) can0 06C#7A07FF0800000000
(1696758371.774496) can0 07E#003B80A00004C020
(1696758371.775473) can0 102#0000001C8003EC67
(1696758371.782670) can0 330#000303EC4403EC67
(1696758371.785009) can0 547#0112000047000000
(1696758371.787565) can0 0DF#0000000000000000
(1696758371.788495) can0 32A#1B0030C92003EC44
(1696758371.792536) can0 2A0#212F00000003EC44
(1696758371.793503) can0 0B0#E2000820FD020C00
(1696758371.794470) can0 110#400102FD00007F04
(1696758371.795428) can0 0A3#000000C111040640
(1696758371.796395) can0 0F7#01FD01B080000300
(1696758371.797414) can0 214#0000000000000000
(1696758371.798409) can0 180#1002000000000104
(1696758371.800048) can0 160#0000000008000000
(1696758371.802607) can0 06C#7A07FF0800000000
(1696758371.811157) can0 07D#0000000000000000
(1696758371.811468) can0 07A#0000000000000000
(1696758371.811892) can0 080#000003EC67C18505
(1696758371.812548) can0 0FD#D3609019E1000000
(1696758371.813502) can0 201#0000000000000000
(1696758371.814494) can0 301#0020300000000000
(1696758371.815486) can0 2F0#0000100040000000
(1696758371.817497) can0 310#8408000000900800
(1696758371.822597) can0 07E#003B80A00004C020
(1696758371.823556) can0 302#3031252F09FFFFFF
(1696758371.827455) can0 0DF#0000000000000000
(1696758371.831443) can0 488#0000000000005800
(1696758371.832522) can0 06C#7A07FF0800000000
(1696758371.834407) can0 0A3#000000C111040640
(1696758371.835381) can0 102#0000001C8003EC67
(1696758371.842864) can0 0B0#E2000820FD020C00
(1696758371.844967) can0 0F7#01FC01B080000300
(1696758371.845982) can0 214#0000000000000000
(1696758371.847520) can0 230#0000000000120000
(1696758371.848530) can0 07D#0000000000000000
(1696758371.849514) can0 245#0001000000000040
(1696758371.850528) can0 07A#0000000000000000
(1696758371.851519) can0 160#0000000008000000
(1696758371.852487) can0 110#400102FD00007F04
(1696758371.853447) can0 440#00070000023A0488
(1696758371.857569) can0 180#1002000000000104
(1696758371.861429) can0 080#000003EC67C10505
(1696758371.862525) can0 06C#7A07FF0800000000
(1696758371.863476) can0 0FD#D3609019E1000000
(1696758371.867463) can0 0DF#0000000000000000
(1696758371.872604) can0 07E#003B80A00004C020
(1696758371.874345) can0 0A3#000000C111040640
(1696758371.887522) can0 07D#0000000000000000
(1696758371.889929) can0 07A#0000000000000000
(1696758371.890938) can0 304#0000000000000000
(1696758371.892531) can0 06C#7A07FF0800000000
(1696758371.893495) can0 0B0#E2000820FD020C00
(1696758371.894470) can0 102#0000001C8003EC67
(1696758371.895436) can0 0F7#01FD01B080000300
(1696758371.896451) can0 214#0000000000000000
(1696758371.897428) can0 501#030220A001000000
(1696758371.899919) can0 160#0000000008000000
(1696758371.902925) can0 201#0000000000000000
(1696758371.910935) can0 0DF#0000000000000000
(1696758371.911464) can0 080#000003EC67C10505
(1696758371.911853) can0 400#0C00000001000201
(1696758371.912673) can0 2A0#212F00000003EC44
(1696758371.913535) can0 0FD#D3609019E1000000
(1696758371.914494) can0 0A3#000000C111040640
(1696758371.915461) can0 110#400102FD00007F04
(1696758371.917743) can0 180#1002000000000104
(1696758371.922595) can0 06C#7A07FF0800000000
(1696758371.923570) can0 07E#003B80A00004C020
(1696758371.927615) can0 07D#0000000000000000
(1696758371.928595) can0 245#0001000000000040
(1696758371.930042) can0 07A#0000000000000000
(1696758371.932633) can0 301#0020300000000000
(1696758371.935130) can0 2F0#0000100040000000
(1696758371.937620) can0 310#8408000000900800
(1696758371.943006) can0 0B0#E2000820FD020C00
(1696758371.945101) can0 0F7#01FD01B080000300
(1696758371.946116) can0 214#0000000000000000
(1696758371.947688) can0 0DF#0000000000000000
(1696758371.948671) can0 230#0000000000120000
(1696758371.949629) can0 440#00070000023A0488
(1696758371.950620) can0 160#0000000008000000
(1696758371.951587) can0 335#410100C000000000
(1696758371.952578) can0 4F0#00000000001B0000
(1696758371.953562) can0 06C#7A07FF0800000000
(1696758371.954520) can0 0A3#000000C111040640
(1696758371.955493) can0 102#0000001C8003EC67
(1696758371.961100) can0 080#000003EC67C10505
(1696758371.962609) can0 0FD#D3609019E1000000
(1696758371.967633) can0 07D#0000000000000000
(1696758371.970038) can0 07A#0000000000000000
(1696758371.972622) can0 07E#003B80A00004C020
(1696758371.973588) can0 110#400102FD00007F04
(1696758371.977636) can0 180#1002000000000104
(1696758371.982613) can0 06C#7A07FF0800000000
(1696758371.987562) can0 0DF#0000000000000000
(1696758371.992559) can0 490#0C00893DCC150000
(1696758371.993525) can0 0B0#E2000820FD020C00
(1696758371.994483) can0 0A3#000000C111040640
(1696758371.995450) can0 0F7#01FD01B080000300
(1696758371.996449) can0 201#0000000000000000
(1696758371.997467) can0 214#0000000000000000
(1696758371.998414) can0 455#600440002003EC67
(1696758371.999365) can0 48A#9580000236800080
(1696758372.000356) can0 160#0000000008000000
(1696758372.002700) can0 302#3031252F09FFFFFF
(1696758372.005148) can0 503#0412000003000000
(1696758372.011457) can0 07D#0000000000000000
(1696758372.011880) can0 245#0001000000000040
(1696758372.012537) can0 06C#7A07FF0800000000
(1696758372.013538) can0 0FD#D3609019E1000000
(1696758372.014511) can0 102#0000001C8003EC67
(1696758372.015518) can0 304#0000000000000000
(1696758372.016454) can0 32A#1B2030C92003EC44
(1696758372.022522) can0 07E#003B80A00004C020
(1696758372.027465) can0 0DF#0000000000000000
(1696758372.032486) can0 2A0#212F00000003EC44
(1696758372.033454) can0 110#400102FD00007F04
(1696758372.034411) can0 0A3#000000E111040640
(1696758372.037525) can0 180#1002000000000104
(1696758372.042475) can0 06C#7A07FF0800000000
(1696758372.043442) can0 0B0#E2000820FD020C00
(1696758372.045024) can0 0F7#01FD01B080000300
(1696758372.046040) can0 214#0000000000000000
(1696758372.047555) can0 230#0000000000120000
(1696758372.048566) can0 07D#0000000000000000
(1696758372.049526) can0 440#00070000023A0488
(1696758372.050540) can0 07A#0000000000000000
(1696758372.051531) can0 160#0000000008000000
(1696758372.052699) can0 301#0020300000000000
(1696758372.055059) can0 2F0#0000100040000000
(1696758372.057618) can0 310#8408000000900800
(1696758372.060882) can0 080#000003EC67C10505
(1696758372.062515) can0 0FD#D3609019E1000000
(1696758372.067483) can0 0DF#0000000000000000
(1696758372.072515) can0 06C#7A07FF0800000000
(1696758372.073488) can0 07E#003B80A00004C020
(1696758372.074446) can0 0A3#000000C111040640
(1696758372.075421) can0 102#0000001C8003EC67
(1696758372.082972) can0 201#0000000000000000
(1696758372.087538) can0 07D#0000000000000000
(1696758372.088517) can0 245#0001000000000040
(1696758372.089948) can0 07A#0000000000000000
(1696758372.092638) can0 110#400102FD00007F04
(1696758372.093604) can0 0B0#E2000820FD020C00
(1696758372.095043) can0 0F7#01FC01B080000300
(1696758372.096059) can0 214#0000000000000000
(1696758372.097614) can0 180#1002000000000104
(1696758372.099953) can0 160#0000000008000000
(1696758372.102505) can0 06C#7A07FF0800000000
(1696758372.107517) can0 0DF#0000000000000000
(1696758372.111511) can0 504#0502002E04000000
(1696758372.111902) can0 080#000003EC67C10505
(1696758372.112660) can0 0FD#D3609019E1000000
(1696758372.114224) can0 0A3#000000C111040640
(1696758372.122593) can0 07E#003B80A00004C020
(1696758372.127558) can0 46B#05FFFFFFFFFFFF30
(1696758372.128568) can0 07D#0000000000000000
(1696758372.129560) can0 4F0#00000000001B0000
(1696758372.130575) can0 07A#0000000000000000
(1696758372.131582) can0 304#0000000000000000
(1696758372.132685) can0 06C#7A07FF0800000000
(1696758372.134155) can0 102#0000001C8003EC67
(1696758372.143061) can0 0B0#E2000820FD020C00
(1696758372.145141) can0 0F7#01FC01B080000300
(1696758372.146155) can0 214#0000000000000000
(1696758372.147695) can0 0DF#0000000000000000
(1696758372.148681) can0 230#0000000000120000
(1696758372.149641) can0 440#00070000023A0488
(1696758372.150633) can0 160#0000000008000000
(1696758372.152608) can0 2A0#212F00000003EC44
(1696758372.153575) can0 110#400102FD00007F04
(1696758372.154534) can0 0A3#000000C111040640
(1696758372.157712) can0 180#1002000000000104
(1696758372.160765) can0 080#000003EC67C10505
(1696758372.162549) can0 400#0D02010201020202
(1696758372.163532) can0 06C#7A07FF0800000000
(1696758372.164483) can0 0FD#D3609019E1000000
(1696758372.165427) can0 405#01604DC334BCFC10
(1696758372.167677) can0 07D#0000000000000000
(1696758372.168624) can0 245#0001000000000040
(1696758372.170087) can0 07A#0000000000000000
(1696758372.172615) can0 07E#003B80A00004C020
(1696758372.173613) can0 201#0000000000000000
(1696758372.174604) can0 301#0020300000000000
(1696758372.175596) can0 2F0#0000100040000000
(1696758372.176578) can0 4C0#000000000003EC67
(1696758372.177628) can0 4A0#01010000A7C8FE94
(1696758372.178595) can0 310#8408000000900800
(1696758372.182612) can0 302#3031262F09FFFFFF
(1696758372.187719) can0 0DF#0000000000000000
(1696758372.190666) can0 488#0000000000005800
(1696758372.192628) can0 06C#7A07FF0800000000
(1696758372.193595) can0 0B0#E2000820FD020C00
(1696758372.194552) can0 0A3#000000C111040640
(1696758372.195519) can0 0F7#01FD01B080000300
(1696758372.196493) can0 102#0000001C8003EC67
(1696758372.197514) can0 214#0000000000000000
(1696758372.200077) can0 160#0000000008000000
(1696758372.202571) can0 4B0#84010100008030F3
(1696758372.207624) can0 4BA#0000000000000000
(1696758372.211964) can0 07D#0000000000000000
(1696758372.212276) can0 07A#0000000000000000
(1696758372.212932) can0 0FD#D3609019E1000000
(1696758372.213486) can0 110#400102FD00007F04
(1696758372.215508) can0 505#1102002E05000000
(1696758372.217550) can0 180#1002000000000104
(1696758372.222515) can0 06C#7A07FF0800000000
(1696758372.223489) can0 07E#003B80A00004C020
(1696758372.227607) can0 0DF#0000000000000000
(1696758372.228602) can0 4D0#0000200000000000
(1696758372.232498) can0 330#000303EC4403EC67
(1696758372.233936) can0 0A3#000000C111040640
(1696758372.237490) can0 32A#1B2030C92003EC44
(1696758372.242987) can0 0B0#E2000820FD020C00
(1696758372.245058) can0 0F7#01FD01B080000300
(1696758372.246074) can0 214#0000000000000000
(1696758372.247570) can0 230#0000000000120000
(1696758372.248584) can0 07D#0000000000000000
(1696758372.249568) can0 245#0001000000000040
(1696758372.250582) can0 07A#0000000000000000
(1696758372.251572) can0 160#0000000008000000
(1696758372.252556) can0 06C#7A07FF0800000000
(1696758372.253564) can0 304#0000000000000000
(1696758372.254538) can0 102#0000001C8003EC67
(1696758372.255504) can0 335#410100C000000000
(1696758372.256463) can0 440#00070000023A0488
(1696758372.260494) can0 080#000003EC67C10505
(1696758372.262493) can0 0FD#D3609019E1000000
(1696758372.263491) can0 201#0000000000000000
(1696758372.267510) can0 0DF#0000000000000000
(1696758372.272481) can0 2A0#212F00000003EC44
(1696758372.273456) can0 07E#003B80A00004C020
(1696758372.274414) can0 0A3#000000C111040640
(1696758372.275362) can0 110#4A01D02F00007F02
(1696758372.277678) can0 180#1002000000000104
(1696758372.282518) can0 06C#7A07FF0800000000
(1696758372.287560) can0 07D#0000000000000000
(1696758372.289988) can0 07A#0000000000000000
(1696758372.292565) can0 301#0020300000000000
(1696758372.293531) can0 0B0#E2000820FD020C00
(1696758372.294482) can0 455#600440002003EC67
(1696758372.295447) can0 0F7#01FD01B080000300
(1696758372.296463) can0 214#0000000000000000
(1696758372.297457) can0 2F0#0000100040000000
(1696758372.298421) can0 310#8408000000900800
(1696758372.299404) can0 496#00017C2000000000
(1696758372.300407) can0 160#0000000008000000
(1696758372.307534) can0 0DF#0000000000000000
(1696758372.311646) can0 4F0#00000000001B0000
(1696758372.312035) can0 080#000003EC67C18505
(1696758372.312564) can0 06C#7A07FF0800000000
(1696758372.313599) can0 0FD#D3609019E1000000
(1696758372.314558) can0 0A3#000000E111040640
(1696758372.315532) can0 102#0000001C8003EC67
(1696758372.322759) can0 07E#003B80A00004C020
(1696758372.323698) can0 511#4712002E05000000
(1696758372.327702) can0 07D#0000000000000000
(1696758372.328650) can0 245#0001000000000040
(1696758372.330089) can0 07A#0000000000000000
(1696758372.332641) can0 110#4001D02F00007F02
(1696758372.337685) can0 180#1002000000000104
(1696758372.342633) can0 06C#7A07FF0800000000
(1696758372.343599) can0 0B0#E2000820FD024800
(1696758372.345191) can0 0F7#01FD01B880000300
(1696758372.346205) can0 214#0000000000000000
(1696758372.347713) can0 0DF#0000000000000000
(1696758372.348699) can0 230#0000000000120000
(1696758372.349658) can0 440#00070000023A0488
(1696758372.350650) can0 160#0000000008000000
(1696758372.353183) can0 201#0000000000000000
(1696758372.354141) can0 0A3#000000C111040640
(1696758372.360293) can0 080#000003EC67C10505
(1696758372.362744) can0 0FD#D3609019E1000000
(1696758372.363711) can0 302#3030262F09FFFFFF
(1696758372.367698) can0 07D#0000000000000000
(1696758372.370083) can0 07A#0000000000000000
(1696758372.371090) can0 304#0000000000000000
(1696758372.372682) can0 06C#7A07FF0800000000
(1696758372.373655) can0 07E#003B80A00004C020
(1696758372.374629) can0 102#0000001C8003EC67
(1696758372.387637) can0 0DF#0000000000000000
(1696758372.392602) can0 2A0#212F00000003EC44
(1696758372.393575) can0 0B0#E2000820FD020800
(1696758372.394533) can0 0A3#000000C111040640
(1696758372.395499) can0 0F7#01FD01B880000300
(1696758372.396458) can0 110#4A01D02F00007F03
(1696758372.397479) can0 214#0000000000000000
(1696758372.398484) can0 180#1002000000000104
(1696758372.400139) can0 160#0000000008000000
(1696758372.402674) can0 06C#7A07FF0800000000
(1696758372.407614) can0 400#0E02040101010101
(1696758372.411950) can0 07D#0000000000000000
(1696758372.412261) can0 245#0001000000000040
(1696758372.412917) can0 405#023AFF003103EC67
(1696758372.413340) can0 0FD#D3609019E1000000
(1696758372.414383) can0 301#0020300000000000
(1696758372.415376) can0 2F0#0000300040000000
(1696758372.417603) can0 310#8008000000900800
(1696758372.422542) can0 07E#003B80A00004C020
(1696758372.424997) can0 547#0112000047000000
(1696758372.427546) can0 0DF#0000000000000000
(1696758372.432575) can0 06C#7A07FF0800000000
(1696758372.433668) can0 0A3#000000C111040640
(1696758372.434642) can0 102#0000001C8003EC67
(1696758372.442501) can0 490#0C00893DCC160000
(1696758372.443441) can0 0B0#E2000820E11ECC00
(1696758372.444439) can0 201#0000000000000000
(1696758372.445407) can0 0F7#01FD01B880000300
(1696758372.446422) can0 214#0000000000000000
(1696758372.447384) can0 48A#9580008236800080
(1696758372.448396) can0 07D#0000000000000000
(1696758372.449386) can0 230#0000000000120000
(1696758372.450400) can0 07A#0000000000000000
(1696758372.451392) can0 160#0000000008000000
(1696758372.452352) can0 440#00070000023A0488
(1696758372.453329) can0 110#4001D02F00007F03
(1696758372.457785) can0 180#1002000000000104
(1696758372.458733) can0 330#000303EC4403EC67
(1696758372.459826) can0 080#000003EC67C10505
(1696758372.462586) can0 06C#7A07FF0800000000
(1696758372.463537) can0 0FD#D3609019E1000000
(1696758372.464473) can0 32A#1B2030C92003EC44
(1696758372.467537) can0 0DF#0000000000000000
(1696758372.472583) can0 07E#003B80A00004C020
(1696758372.473621) can0 0A3#000000C111040640
(1696758372.487538) can0 46B#06FFFFFFFFFFFFB0
(1696758372.488542) can0 07D#0000000000000000
(1696758372.489525) can0 245#0001000000000040
(1696758372.490540) can0 07A#0000000000000000
(1696758372.491547) can0 304#0000000000000000
(1696758372.492540) can0 4F0#00000000001B0000
(1696758372.493522) can0 06C#7A07FF0800000000
(1696758372.494475) can0 0B0#E2000820E11E0C00
(1696758372.495441) can0 0F7#01FD01B880000300
(1696758372.496414) can0 102#0000001C8003EC67
(1696758372.497434) can0 214#0000000000000000
(1696758372.500006) can0 160#0000000008000000
(1696758372.507603) can0 0DF#0000000000000000
(1696758372.511699) can0 080#000003EC67C10505
(1696758372.512665) can0 2A0#212F00000003EC44
(1696758372.513617) can0 0FD#D3609019E1000000
(1696758372.514575) can0 0A3#000000C111040640
(1696758372.515534) can0 110#4A01D02F00007F04
(1696758372.517714) can0 180#1002000000000104
(1696758372.522693) can0 06C#7A07FF0800000000
(1696758372.523667) can0 07E#003B80A00004C020
(1696758372.527714) can0 07D#0000000000000000
(1696758372.530110) can0 07A#0000000000000000
(1696758372.532748) can0 301#0020300000000000
(1696758372.533747) can0 201#0000000000000000
(1696758372.534721) can0 501#030200E001000000
(1696758372.535712) can0 2F0#0000100040000000
(1696758372.537728) can0 310#8008000000900800
(1696758372.542677) can0 302#3031262F09FFFFFF
(1696758372.543627) can0 0B0#E2000820E11E0C00
(1696758372.545227) can0 0F7#01FD01B880000300
(1696758372.546241) can0 214#0000000000000000
(1696758372.547920) can0 0DF#0000000000000000
(1696758372.548883) can0 230#0000000000120000
(1696758372.549834) can0 440#00070000023A0488
(1696758372.550825) can0 160#0000000008000000
(1696758372.551791) can0 335#410100C000000000
(1696758372.552776) can0 06C#7A07FF0800000000
(1696758372.553736) can0 0A3#000000C111040640
(1696758372.554709) can0 102#0000001C8003EC67
(1696758372.555712) can0 488#0000000000005800
(1696758372.559828) can0 080#000003EC67C10505
(1696758372.562704) can0 0FD#D3609019E1000000
(1696758372.567741) can0 07D#0000000000000000
(1696758372.568714) can0 245#0001000000000040
(1696758372.570115) can0 07A#0000000000000000
(1696758372.572731) can0 07E#003B80A00004C020
(1696758372.573690) can0 110#4001D02F00007F04
(1696758372.577748) can0 180#1002000000000104
(1696758372.582714) can0 06C#7A07FF0800000000
(1696758372.587695) can0 0DF#0000000000000000
(1696758372.593180) can0 0B0#E2000820E11E0C00
(1696758372.594137) can0 0A3#000000C111040640
(1696758372.595090) can0 455#600440002003EC67
(1696758372.596055) can0 0F7#01FD01B880000300
(1696758372.597071) can0 214#0000000000000000
(1696758372.600131) can0 160#0000000008000000
(1696758372.607773) can0 07D#0000000000000000
(1696758372.612099) can0 080#000003EC67C10505
(1696758372.612410) can0 07A#0000000000000000
(1696758372.613066) can0 06C#7A07FF0800000000
(1696758372.613616) can0 0FD#D3609019E1000000
(1696758372.614583) can0 102#0000001C8003EC67
(1696758372.622627) can0 07E#003B80A00004C020
(1696758372.623622) can0 201#0000000000000000
(1696758372.627609) can0 0DF#0000000000000000
(1696758372.632704) can0 2A0#212F00000003EC44
(1696758372.633661) can0 0A3#000000E111040640
(1696758372.634620) can0 110#4001D02F00007F04
(1696758372.637631) can0 180#1002000000000104
(1696758372.642611) can0 06C#7A07FF0800000000
(1696758372.643562) can0 0B0#E2000820E11E0C00
(1696758372.645153) can0 0F7#01FD01B880000300
(1696758372.646168) can0 214#0000000000000000
(1696758372.647144) can0 503#0412000003000000
(1696758372.648161) can0 07D#0000000000000000
(1696758372.649149) can0 230#0000000000120000
(1696758372.650163) can0 07A#0000000000000000
(1696758372.651155) can0 160#0000000008000000
(1696758372.652138) can0 245#0001000000000040
(1696758372.653129) can0 301#0020300000000000
(1696758372.654094) can0 440#00070000023A0488
(1696758372.655184) can0 2F0#0000100040000000
(1696758372.657706) can0 310#8008000000900800
(1696758372.659466) can0 080#000003EC67C10505
(1696758372.662579) can0 400#0F01020102020000
(1696758372.663529) can0 0FD#D3609019E1000000
(1696758372.664529) can0 405#0000000000000000
(1696758372.667561) can0 0DF#0000000000000000
(1696758372.668550) can0 4F0#00000000001B0000
(1696758372.672638) can0 06C#7A07FF0800000000
(1696758372.673612) can0 07E#003B80A00004C020
(1696758372.674570) can0 0A3#000000C111040640
(1696758372.675543) can0 102#0000001C8003EC67
(1696758372.682730) can0 330#000303EC4403EC67
(1696758372.687638) can0 07D#0000000000000000
(1696758372.688567) can0 32A#1B0030C92003EC44
(1696758372.690030) can0 07A#0000000000000000
(1696758372.692606) can0 110#4001D02F00007F04
(1696758372.693569) can0 0B0#E2000820E11E0C00
(1696758372.695174) can0 0F7#01FD01B880000300
(1696758372.696189) can0 214#0000000000000000
(1696758372.697743) can0 180#1002000000000104
(1696758372.700026) can0 160#0000000008000000
(1696758372.702634) can0 06C#7A07FF0800000000
(1696758372.707608) can0 0DF#0000000000000000
(1696758372.712741) can0 080#000003EC67C10505
(1696758372.713270) can0 0FD#D3609019E1000000
(1696758372.713798) can0 0A3#000000C111040640
(1696758372.714676) can0 201#0000000000000000
(1696758372.722727) can0 07E#003B80A00004C020
(1696758372.723682) can0 302#3031262F09FFFFFF
(1696758372.727880) can0 07D#0000000000000000
(1696758372.728858) can0 245#0001000000000040
(1696758372.730162) can0 07A#0000000000000000
(1696758372.731170) can0 304#0000000000000000
(1696758372.732785) can0 06C#7A07FF0800000000
(1696758372.733759) can0 102#0000001C8003EC67
(1696758372.743208) can0 0B0#E2000820E11E0C00
(1696758372.745271) can0 0F7#01FD01B880000300
(1696758372.746286) can0 214#0000000000000000
(1696758372.747810) can0 0DF#0000000000000000
(1696758372.748795) can0 230#0000000000120000
(1696758372.749754) can0 440#00070000023A0488
(1696758372.750745) can0 160#0000000008000000
(1696758372.752729) can0 2A0#212F00000003EC44
(1696758372.753687) can0 0A3#000000C111040640
(1696758372.754647) can0 110#4001D02F00007F04
(1696758372.757826) can0 180#1002000000000104
(1696758372.758810) can0 504#0502002604000000
(1696758372.759791) can0 080#000003EC67C10505
(1696758372.762754) can0 06C#7A07FF0800000000
(1696758372.763704) can0 0FD#D3609019E1000000
(1696758372.767882) can0 07D#0000000000000000
(1696758372.770141) can0 07A#0000000000000000
(1696758372.772748) can0 07E#003B80A00004C020
(1696758372.773740) can0 301#0020300000000000
(1696758372.775327) can0 2F0#0000100040000000
(1696758372.777757) can0 310#8008000000900800
(1696758372.787681) can0 0DF#0000000000000000
(1696758372.792749) can0 06C#7A07FF0800000000
(1696758372.793706) can0 0A3#000000C111040640
(1696758372.794657) can0 0B0#E2000820E11E0C00
(1696758372.796112) can0 0F7#01FD01B880000300
(1696758372.797084) can0 102#0000001C8003EC67
(1696758372.798104) can0 214#0000000000000000
(1696758372.800149) can0 160#0000000008000000
(1696758372.803298) can0 201#0000000000000000
(1696758372.807766) can0 07D#0000000000000000
(1696758372.808743) can0 245#0001000000000040
(1696758372.813398) can0 080#000003EC67C18505
(1696758372.813821) can0 110#4001D02F00007F04
(1696758372.814132) can0 07A#0000000000000000
(1696758372.817770) can0 180#1002000000000104
(1696758372.822640) can0 06C#7A07FF0800000000
(1696758372.823615) can0 07E#003B80A00004C020
(1696758372.827531) can0 0DF#0000000000000000
(1696758372.833200) can0 0A3#000000C111040640
(1696758372.843131) can0 0B0#E2000820E11E0C00
(1696758372.845184) can0 0F7#01FD01B880000300
(1696758372.846199) can0 214#0000000000000000
(1696758372.847666) can0 230#0000000000120000
(1696758372.848677) can0 07D#0000000000000000
(1696758372.849635) can0 440#00070000023A0488
(1696758372.850650) can0 07A#0000000000000000
(1696758372.851642) can0 160#0000000008000000
(1696758372.852649) can0 304#0000000000000000
(1696758372.853632) can0 06C#7A07FF0800000000
(1696758372.854606) can0 102#0000001C8003EC67
(1696758372.855572) can0 335#410100C000000000
(1696758372.856556) can0 46B#07FFFFFFFFFFFFB0
(1696758372.857550) can0 4F0#00000000001B0000
(1696758372.859272) can0 080#000003EC67C10505
(1696758372.862750) can0 0FD#D3609019E1000000
(1696758372.863922) can0 505#1102002205000000
(1696758372.867540) can0 0DF#0000000000000000
(1696758372.872624) can0 2A0#212F00000003EC44
(1696758372.873600) can0 07E#003B80A00004C020
(1696758372.874557) can0 0A3#000000C111040640
(1696758372.875516) can0 110#4001D02F00007F04
(1696758372.877637) can0 180#1002000000000104
(1696758372.882653) can0 06C#7A07FF0800000000
(1696758372.887610) can0 07D#0000000000000000
(1696758372.888587) can0 245#0001000000000040
(1696758372.890043) can0 07A#0000000000000000
(1696758372.892627) can0 490#0C00893DCC150000
(1696758372.893578) can0 0B0#E2000820E11E0C00
(1696758372.894577) can0 201#0000000000000000
(1696758372.895545) can0 0F7#01FD01B880000300
(1696758372.896558) can0 214#0000000000000000
(1696758372.897552) can0 2F0#0000100040000000
(1696758372.898539) can0 301#0020300000000000
(1696758372.899514) can0 310#8008000000900800
(1696758372.900506) can0 160#0000000008000000
(1696758372.901456) can0 455#600440002003EC67
(1696758372.902406) can0 48A#9580000236800080
(1696758372.903373) can0 302#3030262F09FFFFFF
(1696758372.904358) can0 496#00017C2000000000
(1696758372.905315) can0 4A0#01010000A7C5FE94
(1696758372.906290) can0 4C0#000000000003EC67
(1696758372.907811) can0 0DF#0000000000000000
(1696758372.908758) can0 330#000303EC4403EC67
(1696758372.913167) can0 080#000003EC67C10505
(1696758372.913696) can0 400#1001010102010000
(1696758372.914517) can0 06C#7A07FF0800000000
(1696758372.915045) can0 0A3#000000E111040640
(1696758372.915732) can0 0FD#D3609019E1000000
(1696758372.916699) can0 102#0000001C8003EC67
(1696758372.917634) can0 32A#1B2030C92003EC44
(1696758372.922732) can0 4B0#04010100008030F3
(1696758372.923705) can0 07E#003B80A00004C020
(1696758372.927689) can0 4BA#0000000000000000
(1696758372.928672) can0 07D#0000000000000000
(1696758372.930167) can0 07A#0000000000000000
(1696758372.932767) can0 110#4001D02F00007F04
(1696758372.937738) can0 180#1002000000000104
(1696758372.942772) can0 06C#7A07FF0800000000
(1696758372.943726) can0 0B0#E2000820E11E0C00
(1696758372.945356) can0 0F7#01FD01B880000300
(1696758372.946358) can0 214#0000000000000000
(1696758372.947787) can0 0DF#0000000000000000
(1696758372.948770) can0 230#0000000000120000
(1696758372.949731) can0 440#00070000023A0488
(1696758372.950719) can0 160#0000000008000000
(1696758372.951727) can0 4D0#0000200000000000
(1696758372.953044) can0 0A3#000000C111040640
(1696758372.959142) can0 080#000003EC67C10505
(1696758372.963238) can0 0FD#D3609019E1000000
(1696758372.967756) can0 07D#0000000000000000
(1696758372.968711) can0 245#0001000000000040
(1696758372.970164) can0 07A#0000000000000000
(1696758372.971177) can0 304#0000000000000000
(1696758372.972824) can0 06C#7A07FF0800000000
(1696758372.973808) can0 07E#003B80A00004C020
(1696758372.974771) can0 102#0000001C8003EC67
(1696758372.975724) can0 511#4712002205000000
(1696758372.983326) can0 201#0000000000000000
(1696758372.987714) can0 0DF#0000000000000000
(1696758372.992753) can0 2A0#212F00000003EC44
(1696758372.993711) can0 0A3#000000C111040640
(1696758372.994656) can0 0B0#E2000820E11E0C00
(1696758372.995627) can0 0F7#01FD01B880000300
(1696758372.996584) can0 110#4001D02F00007F04
(1696758372.997605) can0 214#0000000000000000
(1696758372.998577) can0 180#1002000000000104
(1696758373.000184) can0 160#0000000008000000
(1696758373.002784) can0 06C#7A07FF0800000000
(1696758373.007737) can0 07D#0000000000000000
(1696758373.008758) can0 080#000003EC67C10505
(1696758373.013025) can0 07A#0000000000000000
(1696758373.013457) can0 0FD#D3609019E1000000
(1696758373.013887) can0 301#0020300000000000
(1696758373.015265) can0 2F0#0000100040000000
(1696758373.017615) can0 310#8008000000900800
(1696758373.022657) can0 07E#003B80A00004C020
(1696758373.027615) can0 0DF#0000000000000000
(1696758373.028577) can0 4F0#00000000001B0000
(1696758373.032688) can0 06C#7A07FF0800000000
(1696758373.033646) can0 0A3#000000C111040640
(1696758373.034619) can0 102#0000001C8003EC67
(1696758373.043188) can0 0B0#E2000820E11E0C00
(1696758373.045228) can0 0F7#01FD01B880000300
(1696758373.046242) can0 214#0000000000000000
(1696758373.047644) can0 230#0000000000120000
(1696758373.048659) can0 07D#0000000000000000
(1696758373.049641) can0 245#0001000000000040
(1696758373.050656) can0 07A#0000000000000000
(1696758373.051647) can0 160#0000000008000000
(1696758373.052607) can0 440#00070000023A0488
(1696758373.053566) can0 110#4001D02F00007F04
(1696758373.057722) can0 180#1002000000000104
(1696758373.058769) can0 080#000003EC67C10505
(1696758373.062683) can0 06C#7A07FF0800000000
(1696758373.063633) can0 0FD#D3609019E1000000
(1696758373.067569) can0 0DF#0000000000000000
(1696758373.072689) can0 07E#003B80A00004C020
(1696758373.073646) can0 0A3#000000C111040640
(1696758373.074646) can0 201#0000000000000000
(1696758373.082676) can0 302#3031262F09FFFFFF
(1696758373.085063) can0 547#0112000047000000
(1696758373.087758) can0 07D#0000000000000000
(1696758373.090069) can0 07A#0000000000000000
(1696758373.091084) can0 304#0000000000000000
(1696758373.092747) can0 06C#7A07FF0800000000
(1696758373.093697) can0 0B0#E2000820E11E0C00
(1696758373.094671) can0 102#0000001C8003EC67
(1696758373.095639) can0 0F7#01FD01B880000300
(1696758373.096654) can0 214#0000000000000000
(1696758373.100268) can0 160#0000000008000000
(1696758373.107612) can0 0DF#0000000000000000
(1696758373.108589) can0 080#000003EC67C10505
(1696758373.115343) can0 2A0#212F00000003EC44
(1696758373.115732) can0 0A3#000000C111040640
(1696758373.116556) can0 110#4001D02F00007F04
(1696758373.117745) can0 180#1002000000000104
(1696758373.122797) can0 06C#7A07FF0800000000
(1696758373.123773) can0 07E#003B80A00004C020
(1696758373.127733) can0 07D#0000000000000000
(1696758373.128716) can0 245#0001000000000040
(1696758373.130187) can0 07A#0000000000000000
(1696758373.132978) can0 301#0020300000000000
(1696758373.133929) can0 330#000303EC4403EC67
(1696758373.135394) can0 2F0#0000100040000000
(1696758373.137739) can0 310#8008000000900800
(1696758373.138670) can0 32A#1B2030C92003EC44
(1696758373.143346) can0 0B0#E2000820E11E0C00
(1696758373.145365) can0 0F7#01FD01B880000300
(1696758373.146378) can0 214#0000000000000000
(1696758373.147821) can0 0DF#0000000000000000
(1696758373.148778) can0 230#0000000000120000
(1696758373.149737) can0 440#00070000023A0488
(1696758373.150728) can0 160#0000000008000000
(1696758373.151693) can0 335#410100C000000000
(1696758373.152910) can0 06C#7A07FF0800000000
(1696758373.153869) can0 0A3#000000C111040640
(1696758373.154841) can0 102#0000001C8003EC67
(1696758373.158412) can0 080#000003EC67C10505
(1696758373.162808) can0 400#1101000000000004
(1696758373.163760) can0 0FD#D3609019E1000000
(1696758373.164756) can0 201#0000000000000000
(1696758373.165700) can0 405#01604DC334C603EF
(1696758373.167760) can0 07D#0000000000000000
(1696758373.170204) can0 07A#0000000000000000
(1696758373.172953) can0 07E#003B80A00004C020
(1696758373.173914) can0 110#4001D02F00007F04
(1696758373.177747) can0 180#1002000000000104
(1696758373.186653) can0 06C#7A07FF0800000000
(1696758373.187720) can0 0DF#0000000000000000
(1696758373.192873) can0 501#0302002001000000
(1696758373.193808) can0 0A3#000000C111040640
(1696758373.194768) can0 0B0#E2000820E11E0C00
(1696758373.195740) can0 0F7#01FD01B880000300
(1696758373.196754) can0 214#0000000000000000
(1696758373.197691) can0 455#600440002003EC67
(1696758373.200183) can0 160#0000000008000000
(1696758373.207738) can0 46B#07FFFFFFFFFFFF30
(1696758373.208741) can0 07D#0000000000000000
(1696758373.209719) can0 080#000003EC67C10505
(1696758373.210735) can0 07A#0000000000000000
(1696758373.211807) can0 245#0001000000000040
(1696758373.215122) can0 304#0000000000000000
(1696758373.215433) can0 06C#7A07FF0800000000
(1696758373.216093) can0 102#0000001C8003EC67
(1696758373.216516) can0 4F0#00000000001B0000
(1696758373.222862) can0 07E#003B80A00004C020
(1696758373.227626) can0 0DF#0000000000000000
(1696758373.232677) can0 0A3#000000E111040640
(1696758373.233644) can0 110#4001D02F00007F04
(1696758373.234610) can0 2A0#212F00000003EC44
(1696758373.237657) can0 180#1002000000000104
(1696758373.242720) can0 06C#7A07FF0800000000
(1696758373.243670) can0 0B0#E2000820E11E0C00
(1696758373.245270) can0 0F7#01FD01B880000300
(1696758373.246297) can0 214#0000000000000000
(1696758373.247689) can0 230#0000000000120000
(1696758373.248700) can0 07D#0000000000000000
(1696758373.249659) can0 440#00070000023A0488
(1696758373.250674) can0 07A#0000000000000000
(1696758373.251665) can0 160#0000000008000000
(1696758373.252832) can0 301#0020300000000000
(1696758373.253831) can0 201#0000000000000000
(1696758373.255328) can0 2F0#0000100040000000
(1696758373.257756) can0 310#8008000000900800
(1696758373.258730) can0 080#000003EC67C10505
(1696758373.262715) can0 0FD#D3609019E1000000
(1696758373.263673) can0 302#3031272F09FFFFFF
(1696758373.267742) can0 0DF#0000000000000000
(1696758373.268718) can0 488#0000000000005800
(1696758373.272631) can0 0A3#000000C111040640
(1696758373.273614) can0 06C#7A07FF0800000000
(1696758373.274589) can0 07E#003B80A00004C020
(1696758373.275588) can0 102#0000001C8003EC67
(1696758373.290196) can0 07D#0000000000000000
(1696758373.290620) can0 07A#0000000000000000
(1696758373.290930) can0 245#0001000000000040
(1696758373.292738) can0 110#4001D02F00007F04
(1696758373.293689) can0 0B0#E2000820E11E0C00
(1696758373.295314) can0 0F7#01FD01B880000300
(1696758373.296327) can0 214#0000000000000000
(1696758373.297755) can0 180#1002000000000104
(1696758373.300096) can0 160#0000000008000000
(1696758373.302768) can0 06C#7A07FF0800000000
(1696758373.305311) can0 503#0412000003000000
(1696758373.307752) can0 0DF#0000000000000000
(1696758373.308722) can0 080#000003EC67C18505
(1696758373.316045) can0 0A3#000000C111040640
(1696758373.316435) can0 0FD#D3609019E1000000
(1696758373.322866) can0 07E#003B80A00004C020
(1696758373.327777) can0 07D#0000000000000000
(1696758373.330209) can0 07A#0000000000000000
(1696758373.331215) can0 304#0000000000000000
(1696758373.332700) can0 102#0000001C8003EC67
(1696758373.333684) can0 06C#7A07FF0800000000
(1696758373.342823) can0 490#0C00893DCC150000
(1696758373.343782) can0 0B0#E2000820E11E0C00
(1696758373.344782) can0 201#0000000000000000
(1696758373.345747) can0 0F7#01FD01C080000300
(1696758373.346764) can0 214#0000000000000000
(1696758373.347713) can0 48A#9580008236800080
(1696758373.348717) can0 0DF#0000000000000000
(1696758373.349708) can0 230#0000000000120000
(1696758373.350699) can0 160#0000000008000000
(1696758373.351659) can0 440#00070000023A0488
(1696758373.352648) can0 0A3#000000C111040640
(1696758373.353608) can0 110#4001D02F00007F04
(1696758373.354583) can0 2A0#212F00000003EC44
(1696758373.357931) can0 180#1002000000000104
(1696758373.358908) can0 080#000003EC67C10505
(1696758373.359858) can0 330#000303EC4403EC67
(1696758373.362884) can0 06C#7A07FF0800000000
(1696758373.363835) can0 0FD#D3609019E1000000
(1696758373.364770) can0 32A#1B2030C92003EC44
(1696758373.367778) can0 07D#0000000000000000
(1696758373.368759) can0 245#0001000000000040
(1696758373.370222) can0 07A#0000000000000000
(1696758373.372894) can0 07E#003B80A00004C020
(1696758373.373885) can0 301#0020300000000000
(1696758373.375460) can0 2F0#0000300040000000
(1696758373.377780) can0 310#8008000000900800
(1696758373.387748) can0 0DF#0000000000000000
(1696758373.388733) can0 4F0#00000000001B0000
(1696758373.392552) can0 0A3#000000C111040640
(1696758373.393534) can0 06C#7A07FF0800000000
(1696758373.394485) can0 0B0#E2000820E11E0C00
(1696758373.395451) can0 0F7#01FD01C080000300
(1696758373.396426) can0 102#0000001C8003EC67
(1696758373.397445) can0 214#0000000000000000
(1696758373.400217) can0 160#0000000008000000
(1696758373.407734) can0 400#1201020202030102
(1696758373.408743) can0 07D#0000000000000000
(1696758373.409724) can0 080#000003EC67C10505
(1696758373.410738) can0 07A#0000000000000000
(1696758373.411681) can0 405#023AFF003103EC67
(1696758373.416599) can0 0FD#D3609019E1000000
(1696758373.417022) can0 110#4001D02F00007F04
(1696758373.417448) can0 504#0502002204000000
(1696758373.418489) can0 180#1002000000000104
(1696758373.422816) can0 06C#7A07FF0800000000
(1696758373.423791) can0 07E#003B80A00004C020
(1696758373.427634) can0 0DF#0000000000000000
(1696758373.432442) can0 0A3#000000C111040640
(1696758373.433439) can0 201#0000000000000000
(1696758373.442920) can0 302#3031272F09FFFFFF
(1696758373.443869) can0 0B0#E2000820E11E0C00
(1696758373.445324) can0 0F7#01FD01C080000300
(1696758373.446341) can0 214#0000000000000000
(1696758373.447719) can0 230#0000000000120000
(1696758373.448731) can0 07D#0000000000000000
(1696758373.449714) can0 245#0001000000000040
(1696758373.450729) can0 07A#0000000000000000
(1696758373.451739) can0 160#0000000008000000
(1696758373.452693) can0 102#0000001C8003EC67
(1696758373.453676) can0 06C#7A07FF0800000000
(1696758373.454683) can0 304#0000000000000000
(1696758373.455651) can0 335#410100C000000000
(1696758373.456612) can0 440#00070000023A0488
(1696758373.457857) can0 080#000003EC67C10505
(1696758373.462798) can0 0FD#D3609019E1000000
(1696758373.467658) can0 0DF#0000000000000000
(1696758373.472368) can0 0A3#000000C111040640
(1696758373.473341) can0 07E#003B80A00004C020
(1696758373.474300) can0 110#4001D02F00007F04
(1696758373.475275) can0 2A0#212F00000003EC44
(1696758373.477710) can0 180#1002000000000104
(1696758373.482823) can0 06C#7A07FF0800000000
(1696758373.487713) can0 07D#0000000000000000
(1696758373.490117) can0 07A#0000000000000000
(1696758373.492956) can0 301#0020300000000000
(1696758373.493906) can0 0B0#E2000820E11E0C00
(1696758373.494858) can0 455#600440002003EC67
(1696758373.495823) can0 0F7#01FD01C080000300
(1696758373.496840) can0 214#0000000000000000
(1696758373.497835) can0 2F0#0000100040000000
(1696758373.498816) can0 310#8008000000900800
(1696758373.499799) can0 496#00017C2000000000
(1696758373.500790) can0 160#0000000008000000
(1696758373.507413) can0 080#000003EC67C10505
(1696758373.508418) can0 0DF#0000000000000000
(1696758373.512323) can0 0A3#000000E111040640
(1696758373.516409) can0 06C#7A07FF0800000000
(1696758373.516798) can0 0FD#D3609019E1000000
(1696758373.517624) can0 102#0000001C8003EC67
(1696758373.522465) can0 505#1102002205000000
(1696758373.523441) can0 07E#003B80A00004C020
(1696758373.524439) can0 201#0000000000000000
(1696758373.527834) can0 07D#0000000000000000
(1696758373.528813) can0 245#0001000000000040
(1696758373.530230) can0 07A#0000000000000000
(1696758373.532941) can0 110#4001D02F00007F04
(1696758373.537933) can0 180#1002000000000104
(1696758373.542939) can0 06C#7A07FF0800000000
(1696758373.543889) can0 0B0#E2000820E11E0C00
(1696758373.545457) can0 0F7#01FD01C080000300
(1696758373.546474) can0 214#0000000000000000
(1696758373.547877) can0 0DF#0000000000000000
(1696758373.548863) can0 230#0000000000120000
(1696758373.549823) can0 440#00070000023A0488
(1696758373.550814) can0 160#0000000008000000
(1696758373.552436) can0 0A3#000000C111040640
(1696758373.557515) can0 080#000003EC67C10505
(1696758373.562936) can0 0FD#D3609019E1000000
(1696758373.567827) can0 46B#08FFFFFFFFFFFFB0
(1696758373.568804) can0 07D#0000000000000000
(1696758373.569795) can0 4F0#00000000001B0000
(1696758373.570811) can0 07A#0000000000000000
(1696758373.571818) can0 304#0000000000000000
(1696758373.572793) can0 102#0000001C8003EC67
(1696758373.573776) can0 06C#7A07FF0800000000
(1696758373.574751) can0 07E#003B80A00004C020
(1696758373.582943) can0 330#000303EC4403EC67
(1696758373.587816) can0 0DF#0000000000000000
(1696758373.588726) can0 32A#1B0030C92003EC44
(1696758373.592330) can0 0A3#000000C111040640
(1696758373.593289) can0 110#4001D02F00007F04
(1696758373.594238) can0 0B0#E2000820E11E0C00
(1696758373.595214) can0 2A0#212F00000003EC44
(1696758373.596182) can0 0F7#01FD01C080000300
(1696758373.597198) can0 214#0000000000000000
(1696758373.598198) can0 180#1002000000000104
(1696758373.600261) can0 160#0000000008000000
(1696758373.602973) can0 06C#7A07FF0800000000
(1696758373.607311) can0 080#000003EC67C10505
(1696758373.608303) can0 07D#0000000000000000
(1696758373.609287) can0 245#0001000000000040
(1696758373.610303) can0 07A#0000000000000000
(1696758373.616664) can0 0FD#D3609019E1000000
(1696758373.617087) can0 201#0000000000000000
(1696758373.617748) can0 310#8008000000900800
(1696758373.618743) can0 4A0#01010000A7C5FE94
(1696758373.622856) can0 07E#003B80A00004C020
(1696758373.623814) can0 302#3030272F09FFFFFF
(1696758373.627167) can0 488#0000000000005800
(1696758373.628174) can0 0DF#0000000000000000
(1696758373.632209) can0 0A3#000000C111040640
(1696758373.633191) can0 06C#7A07FF0800000000
(1696758373.634164) can0 102#0000001C8003EC67
(1696758373.635107) can0 511#4712002205000000
(1696758373.642814) can0 4B0#84010100008030F3
(1696758373.643762) can0 0B0#E2000820E11E0C00
(1696758373.645369) can0 0F7#01FD01C080000300
(1696758373.646384) can0 214#0000000000000000
(1696758373.647780) can0 230#0000000000120000
(1696758373.648791) can0 07D#0000000000000000
(1696758373.649750) can0 440#00070000023A0488
(1696758373.650764) can0 07A#0000000000000000
(1696758373.651756) can0 160#0000000008000000
(1696758373.652747) can0 4BA#0000000000000000
(1696758373.653707) can0 110#4001D02F00007F04
(1696758373.657058) can0 080#000003EC67C10505
(1696758373.658059) can0 180#1002000000000104
(1696758373.662833) can0 400#1302000200020202
(1696758373.663817) can0 06C#7A07FF0800000000
(1696758373.664768) can0 0FD#D3609019E1000000
(1696758373.667715) can0 0DF#0000000000000000
(1696758373.668694) can0 4D0#0000200000000000
(1696758373.672121) can0 0A3#000000C111040640
(1696758373.673097) can0 07E#003B80A00004C020
(1696758373.687764) can0 07D#0000000000000000
(1696758373.688737) can0 245#0001000000000040
(1696758373.690143) can0 07A#0000000000000000
(1696758373.691152) can0 304#0000000000000000
(1696758373.692126) can0 102#0000001C8003EC67
(1696758373.693111) can0 06C#7A07FF0800000000
(1696758373.694060) can0 0B0#E2000820E11E0C00
(1696758373.695396) can0 0F7#01FD01C080000300
(1696758373.696411) can0 214#0000000000000000
(1696758373.700160) can0 160#0000000008000000
(1696758373.703433) can0 201#0000000000000000
(1696758373.706943) can0 080#000003EC67C10505
(1696758373.707951) can0 0DF#0000000000000000
(1696758373.712071) can0 0A3#000000C111040640
(1696758373.716445) can0 0FD#D3609019E1000000
(1696758373.716975) can0 110#4001D02F00007F04
(1696758373.717825) can0 180#1002000000000104
(1696758373.722976) can0 06C#7A07FF0800000000
(1696758373.723952) can0 07E#003B80A00004C020
(1696758373.727874) can0 07D#0000000000000000
(1696758373.730253) can0 07A#0000000000000000
(1696758373.733023) can0 301#0020300000000000
(1696758373.735518) can0 2F0#0000100040000000
(1696758373.737864) can0 310#8008000000900800
(1696758373.743503) can0 0B0#E2000820E11E0C00
(1696758373.745254) can0 547#0112000047000000
(1696758373.746221) can0 0F7#01FD01C080000300
(1696758373.747237) can0 214#0000000000000000
(1696758373.748245) can0 0DF#0000000000000000
(1696758373.749236) can0 230#0000000000120000
(1696758373.750194) can0 440#00070000023A0488
(1696758373.751186) can0 160#0000000008000000
(1696758373.752152) can0 335#410100C000000000
(1696758373.753135) can0 06C#7A07FF0800000000
(1696758373.754093) can0 0A3#000000C111040640
(1696758373.755067) can0 102#0000001C8003EC67
(1696758373.756060) can0 4F0#00000000001B0000
(1696758373.757255) can0 080#000003EC67C10505
(1696758373.763086) can0 0FD#D3609019E1000000
(1696758373.767882) can0 07D#0000000000000000
(1696758373.768860) can0 245#0001000000000040
(1696758373.770259) can0 07A#0000000000000000
(1696758373.772995) can0 07E#003B80A00004C020
(1696758373.773954) can0 110#4001D02F00007F04
(1696758373.777883) can0 180#1002000000000104
(1696758373.783005) can0 06C#7A07FF0800000000
(1696758373.787829) can0 0DF#0000000000000000
(1696758373.791932) can0 0A3#000000C111040640
(1696758373.792978) can0 490#0C00893DCC170000
(1696758373.793936) can0 0B0#E1000820E11E0C00
(1696758373.794935) can0 201#0000000000000000
(1696758373.795903) can0 0F7#01FD01C080000300
(1696758373.796917) can0 214#0000000000000000
(1696758373.797875) can0 455#600440002003EC67
(1696758373.798821) can0 48A#9580000236800080
(1696758373.800253) can0 160#0000000008000000
(1696758373.803085) can0 302#3031272F09FFFFFF
(1696758373.806795) can0 080#000003EC67C18505
(1696758373.808060) can0 07D#0000000000000000
(1696758373.809008) can0 330#000303EC4403EC67
(1696758373.810294) can0 07A#0000000000000000
(1696758373.811301) can0 304#0000000000000000
(1696758373.812275) can0 102#0000001C8003EC67
(1696758373.816930) can0 06C#7A07FF0800000000
(1696758373.817356) can0 32A#1B2030C92003EC44
(1696758373.817668) can0 0FD#D3609019E1000000
(1696758373.822896) can0 07E#003B80A00004C020
(1696758373.827732) can0 0DF#0000000000000000
(1696758373.831939) can0 0A3#000000E111040640
(1696758373.832913) can0 2A0#212F00000003EC44
(1696758373.833872) can0 110#4001D02F00007F04
(1696758373.837795) can0 180#1002000000000104
(1696758373.842888) can0 06C#7A07FF0800000000
(1696758373.843839) can0 0B0#E2000820E11E0C00
(1696758373.845423) can0 0F7#01FD01C080000300
(1696758373.846438) can0 214#0000000000000000
(1696758373.847921) can0 230#0000000000120000
(1696758373.848933) can0 07D#0000000000000000
(1696758373.849916) can0 245#0001000000000040
(1696758373.850931) can0 07A#0000000000000000
(1696758373.851922) can0 160#0000000008000000
(1696758373.852880) can0 440#00070000023A0488
(1696758373.853871) can0 301#0020300000000000
(1696758373.854855) can0 501#0302002001000000
(1696758373.855846) can0 2F0#0000100040000000
(1696758373.856828) can0 080#000003EC67C10505
(1696758373.857893) can0 310#8008000000900800
(1696758373.862890) can0 0FD#D3609019E1000000
(1696758373.867717) can0 0DF#0000000000000000
(1696758373.871876) can0 0A3#000000C111040640
(1696758373.872850) can0 102#0000001C8003EC67
(1696758373.873834) can0 06C#7A07FF0800000000
(1696758373.874809) can0 07E#003B80A00004C020
(1696758373.883479) can0 201#0000000000000000
